Circuit: ** ISIM circuit **

Direct Newton iteration for .op point skipped.
Gmin stepping method for .op point skipped.
Starting source stepping with srcstepmethod=0
Source Step = 3.0303%
Source Step = 33.3333%
Source Step = 63.6364%
Source Step = 93.9394%
Source stepping succeeded in finding the operating point.

Semiconductor Device Operating Points:
                        --- Diodes ---
Name:    d:q9:bd     d:q1:bd    d:q13:bd    d:q10:bd     d:u2:n2
Model:   q9:dbd      q1:dbd      q13:dbd     q10:dbd      u2:dy
Id:     -1.11e-10    0.00e+00    0.00e+00    0.00e+00    1.94e-06
Vd:     -3.16e-01    5.83e-02   -3.08e-02    2.73e-02    6.00e-01
Req:     1.00e+12    4.04e+11    9.55e+11    6.92e+11    1.33e+04
CAP:     1.12e-11    1.37e-11    1.29e-11    1.34e-11    0.00e+00

Name:    d:u2:n1     d:u2:q2     d:u2:q1     d:u2:p      d:u2:ln
Model:    u2:dy       u2:dx       u2:dx       u2:dx       u2:dx
Id:      1.94e-06   -6.57e-13    8.50e-05   -1.70e-11   -1.01e-11
Vd:      6.00e-01   -6.57e-01    6.57e-01   -1.70e+01   -1.01e+01
Req:     1.33e+04    1.00e+12    3.04e+02    1.00e+12    1.00e+12
CAP:     0.00e+00    0.00e+00    0.00e+00    0.00e+00    0.00e+00

Name:    d:u2:lp     d:u2:e      d:u2:c     d:u12:n2    d:u12:n1
Model:    u2:dx       u2:dx       u2:dx      u12:dy      u12:dy
Id:     -9.92e-12   -1.50e-11   -3.10e-14    1.94e-06    1.94e-06
Vd:     -9.92e+00   -1.50e+01   -3.04e-02    6.00e-01    6.00e-01
Req:     1.00e+12    1.00e+12    9.91e+11    1.33e+04    1.33e+04
CAP:     0.00e+00    0.00e+00    0.00e+00    0.00e+00    0.00e+00

Name:   d:u12:q2    d:u12:q1     d:u12:p    d:u12:ln    d:u12:lp
Model:   u12:dx      u12:dx      u12:dx      u12:dx      u12:dx
Id:     -5.71e-13    3.04e-06   -1.70e-11   -1.00e-11   -1.00e-11
Vd:     -5.71e-01    5.71e-01   -1.70e+01   -1.00e+01   -1.00e+01
Req:     1.00e+12    8.51e+03    1.00e+12    1.00e+12    1.00e+12
CAP:     0.00e+00    0.00e+00    0.00e+00    0.00e+00    0.00e+00

Name:    d:u12:e     d:u12:c     d:u5:n2     d:u5:n1     d:u5:q2
Model:   u12:dx      u12:dx       u5:dy       u5:dy       u5:dx
Id:     -6.03e-12   -9.02e-12    1.94e-06    1.94e-06   -6.11e-13
Vd:     -6.03e+00   -9.02e+00    6.00e-01    6.00e-01   -6.11e-01
Req:     1.00e+12    1.00e+12    1.33e+04    1.33e+04    1.00e+12
CAP:     0.00e+00    0.00e+00    0.00e+00    0.00e+00    0.00e+00

Name:    d:u5:q1     d:u5:p      d:u5:ln     d:u5:lp     d:u5:e
Model:    u5:dx       u5:dx       u5:dx       u5:dx       u5:dx
Id:      1.43e-05   -1.70e-11   -1.00e-11   -9.99e-12   -5.07e-12
Vd:      6.11e-01   -1.70e+01   -1.00e+01   -9.99e+00   -5.07e+00
Req:     1.80e+03    1.00e+12    1.00e+12    1.00e+12    1.00e+12
CAP:     0.00e+00    0.00e+00    0.00e+00    0.00e+00    0.00e+00

Name:    d:u5:c      d:u4:n2     d:u4:n1     d:u4:q2     d:u4:q1
Model:    u5:dx       u4:dy       u4:dy       u4:dx       u4:dx
Id:     -9.98e-12    1.94e-06    1.94e-06   -6.21e-13    2.07e-05
Vd:     -9.98e+00    6.00e-01    6.00e-01   -6.20e-01    6.20e-01
Req:     1.00e+12    1.33e+04    1.33e+04    1.00e+12    1.25e+03
CAP:     0.00e+00    0.00e+00    0.00e+00    0.00e+00    0.00e+00

Name:    d:u4:p      d:u4:ln     d:u4:lp     d:u4:e      d:u4:c
Model:    u4:dx       u4:dx       u4:dx       u4:dx       u4:dx
Id:     -1.70e-11   -1.00e-11   -9.98e-12   -5.39e-12   -9.67e-12
Vd:     -1.70e+01   -1.00e+01   -9.98e+00   -5.39e+00   -9.66e+00
Req:     1.00e+12    1.00e+12    1.00e+12    1.00e+12    1.00e+12
CAP:     0.00e+00    0.00e+00    0.00e+00    0.00e+00    0.00e+00

Name:    d:u3:n2     d:u3:n1     d:u3:q2     d:u3:q1     d:u3:p
Model:    u3:dy       u3:dy       u3:dx       u3:dx       u3:dx
Id:      1.94e-06    1.94e-06   -6.11e-13    1.43e-05   -1.70e-11
Vd:      6.00e-01    6.00e-01   -6.11e-01    6.11e-01   -1.70e+01
Req:     1.33e+04    1.33e+04    1.00e+12    1.80e+03    1.00e+12
CAP:     0.00e+00    0.00e+00    0.00e+00    0.00e+00    0.00e+00

Name:    d:u3:ln     d:u3:lp     d:u3:e      d:u3:c      d:u8:n2
Model:    u3:dx       u3:dx       u3:dx       u3:dx       u8:dy
Id:     -1.00e-11   -9.99e-12   -5.07e-12   -9.98e-12    1.94e-06
Vd:     -1.00e+01   -9.99e+00   -5.07e+00   -9.98e+00    6.00e-01
Req:     1.00e+12    1.00e+12    1.00e+12    1.00e+12    1.33e+04
CAP:     0.00e+00    0.00e+00    0.00e+00    0.00e+00    0.00e+00

Name:    d:u8:n1     d:u8:q2     d:u8:q1     d:u8:p      d:u8:ln
Model:    u8:dy       u8:dx       u8:dx       u8:dx       u8:dx
Id:      1.94e-06   -5.51e-13    1.36e-06   -1.70e-11   -1.00e-11
Vd:      6.00e-01   -5.50e-01    5.50e-01   -1.70e+01   -1.00e+01
Req:     1.33e+04    1.00e+12    1.90e+04    1.00e+12    1.00e+12
CAP:     0.00e+00    0.00e+00    0.00e+00    0.00e+00    0.00e+00

Name:    d:u8:lp     d:u8:e      d:u8:c      d:u7:n2     d:u7:n1
Model:    u8:dx       u8:dx       u8:dx       u7:dy       u7:dy
Id:     -1.00e-11   -4.42e-12   -1.06e-11    1.94e-06    1.94e-06
Vd:     -1.00e+01   -4.42e+00   -1.06e+01    6.00e-01    6.00e-01
Req:     1.00e+12    1.00e+12    1.00e+12    1.33e+04    1.33e+04
CAP:     0.00e+00    0.00e+00    0.00e+00    0.00e+00    0.00e+00

Name:    d:u7:q2     d:u7:q1     d:u7:p      d:u7:ln     d:u7:lp
Model:    u7:dx       u7:dx       u7:dx       u7:dx       u7:dx
Id:     -6.80e-13    2.00e-04   -1.70e-11   -1.02e-11   -9.80e-12
Vd:     -6.79e-01    6.79e-01   -1.70e+01   -1.02e+01   -9.80e+00
Req:     1.00e+12    1.29e+02    1.00e+12    1.00e+12    1.00e+12
CAP:     0.00e+00    0.00e+00    0.00e+00    0.00e+00    0.00e+00

Name:    d:u7:e      d:u7:c      d:u6:n2     d:u6:n1     d:u6:q2
Model:    u7:dx       u7:dx       u6:dy       u6:dy       u6:dx
Id:     -1.43e-11   -7.04e-13    1.94e-06    1.94e-06   -5.51e-13
Vd:     -1.43e+01   -7.03e-01    6.00e-01    6.00e-01   -5.50e-01
Req:     1.00e+12    1.00e+12    1.33e+04    1.33e+04    1.00e+12
CAP:     0.00e+00    0.00e+00    0.00e+00    0.00e+00    0.00e+00

Name:    d:u6:q1     d:u6:p      d:u6:ln     d:u6:lp     d:u6:e
Model:    u6:dx       u6:dx       u6:dx       u6:dx       u6:dx
Id:      1.36e-06   -1.70e-11   -1.00e-11   -1.00e-11   -4.42e-12
Vd:      5.50e-01   -1.70e+01   -1.00e+01   -1.00e+01   -4.42e+00
Req:     1.90e+04    1.00e+12    1.00e+12    1.00e+12    1.00e+12
CAP:     0.00e+00    0.00e+00    0.00e+00    0.00e+00    0.00e+00

Name:    d:u6:c      d:u1:n2     d:u1:n1     d:u1:q2     d:u1:q1
Model:    u6:dx       u1:dy       u1:dy       u1:dx       u1:dx
Id:     -1.06e-11    1.94e-06    1.94e-06   -5.51e-13    1.36e-06
Vd:     -1.06e+01    6.00e-01    6.00e-01   -5.50e-01    5.50e-01
Req:     1.00e+12    1.33e+04    1.33e+04    1.00e+12    1.90e+04
CAP:     0.00e+00    0.00e+00    0.00e+00    0.00e+00    0.00e+00

Name:    d:u1:p      d:u1:ln     d:u1:lp     d:u1:e      d:u1:c
Model:    u1:dx       u1:dx       u1:dx       u1:dx       u1:dx
Id:     -1.70e-11   -1.00e-11   -1.00e-11   -4.42e-12   -1.06e-11
Vd:     -1.70e+01   -1.00e+01   -1.00e+01   -4.42e+00   -1.06e+01
Req:     1.00e+12    1.00e+12    1.00e+12    1.00e+12    1.00e+12
CAP:     0.00e+00    0.00e+00    0.00e+00    0.00e+00    0.00e+00

Name:    d:q5:4      d:q5:3      d:q5:2      d:q5:1      d:q6:1
Model:   q5:md3      q5:md2      q5:md1       q5:md     q6:dn0124
Id:      9.73e+00    9.73e+00    2.62e-13   -5.22e-10   -1.25e-13
Vd:      2.62e-01    2.62e-01    2.62e-01   -2.20e-03   -1.10e-03
Req:     1.06e-03    1.06e-03    1.00e+12    4.34e+06    8.93e+09
CAP:     0.00e+00    0.00e+00    1.02e-10    2.22e-11    0.00e+00

Name:    d:q3:4      d:q3:3      d:q3:2      d:q3:1      d:q4:1
Model:   q3:md3      q3:md2      q3:md1       q3:md     q4:dn0124
Id:     -1.10e-10    0.00e+00   -9.89e-12   -9.48e-09   -1.30e-11
Vd:     -9.89e+00   -9.89e+00   -9.89e+00   -9.93e+00   -9.96e+00
Req:     1.00e+12    1.00e+12    1.00e+12    1.00e+12    1.00e+12
CAP:     0.00e+00    0.00e+00    4.51e-12    6.75e-12    0.00e+00

Name:    d:q7:4      d:q7:3      d:q7:2      d:q7:1      d:q8:1
Model:   q7:md3      q7:md2      q7:md1       q7:md     q8:dn0124
Id:     -1.10e-10    0.00e+00   -9.89e-12   -9.48e-09   -1.30e-11
Vd:     -9.89e+00   -9.89e+00   -9.89e+00   -9.93e+00   -9.96e+00
Req:     1.00e+12    1.00e+12    1.00e+12    1.00e+12    1.00e+12
CAP:     0.00e+00    0.00e+00    4.51e-12    6.75e-12    0.00e+00

                        --- Bipolar Transistors ---
Name:     q:u2:2      q:u2:1      q:u12:2     q:u12:1          qq2
Model:     u2:qx       u2:qx      u12:qx      u12:qx    qbd135__bjt_npn__1
Ib:      -4.96e-08   -4.97e-08   -5.04e-08   -5.04e-08       8.50e-05
Ic:      -2.98e-06   -2.98e-06   -3.02e-06   -3.02e-06       1.04e-02
Vbe:     -5.70e-01   -5.70e-01   -5.70e-01   -5.70e-01       6.70e-01
Vbc:      9.95e+00    9.95e+00    5.50e+00    5.50e+00      -1.33e+00
Vce:     -1.05e+01   -1.05e+01   -6.07e+00   -6.07e+00       2.00e+00
BetaDC:   6.00e+01    6.00e+01    6.00e+01    6.00e+01       1.23e+02
Gm:       1.15e-04    1.15e-04    1.17e-04    1.17e-04       4.05e-01
Rpi:      5.21e+05    5.21e+05    5.13e+05    5.14e+05       3.01e+02
Rx:       0.00e+00    0.00e+00    0.00e+00    0.00e+00       5.00e-01
Ro:       0.00e+00    0.00e+00    0.00e+00    0.00e+00       2.12e+04
Cbe:      0.00e+00    0.00e+00    0.00e+00    0.00e+00       5.54e-10
Cbc:      0.00e+00    0.00e+00    0.00e+00    0.00e+00       1.79e-11
Cjs:      0.00e+00    0.00e+00    0.00e+00    0.00e+00       0.00e+00
BetaAC:   6.00e+01    6.00e+01    6.00e+01    6.00e+01       1.22e+02
Cbx:      0.00e+00    0.00e+00    0.00e+00    0.00e+00       0.00e+00
Ft:       0.00e+00    0.00e+00    0.00e+00    0.00e+00       1.13e+08

Name:          qq11                   qq12              q:u5:2      q:u5:1      q:u4:2
Model:  qbd135__bjt_npn__1 qbc51-10pa/nxp__bjt_pnp__1    u5:qx       u5:qx       u4:qx
Ib:          3.04e-06               7.27e-12           -5.04e-08   -5.03e-08   -5.03e-08
Ic:          3.90e-04              -6.69e-12           -3.02e-06   -3.02e-06   -3.02e-06
Vbe:         5.83e-01               5.83e-01           -5.70e-01   -5.70e-01   -5.70e-01
Vbc:        -1.03e+01               6.68e+00            5.67e+00    5.67e+00    5.99e+00
Vce:         1.09e+01              -6.09e+00           -6.24e+00   -6.24e+00   -6.56e+00
BetaDC:      1.28e+02              -9.20e-01            6.00e+01    6.00e+01    6.00e+01
Gm:          1.52e-02               3.47e-22            1.17e-04    1.17e-04    1.17e-04
Rpi:         8.44e+03               1.00e+12            5.13e+05    5.14e+05    5.14e+05
Rx:          5.00e-01               2.00e+00            0.00e+00    0.00e+00    0.00e+00
Ro:          5.92e+05               1.30e+25            0.00e+00    0.00e+00    0.00e+00
Cbe:         2.26e-10               9.28e-11            0.00e+00    0.00e+00    0.00e+00
Cbc:         8.34e-12               7.77e-12            0.00e+00    0.00e+00    0.00e+00
Cjs:         0.00e+00               0.00e+00            0.00e+00    0.00e+00    0.00e+00
BetaAC:      1.28e+02               3.47e-10            6.00e+01    6.00e+01    6.00e+01
Cbx:         0.00e+00               9.89e-12            0.00e+00    0.00e+00    0.00e+00
Ft:          1.03e+07               1.44e-03            0.00e+00    0.00e+00    0.00e+00

Name:     q:u4:1      q:u3:2      q:u3:1      q:u8:2      q:u8:1
Model:     u4:qx       u3:qx       u3:qx       u8:qx       u8:qx
Ib:      -5.03e-08   -5.04e-08   -5.03e-08   -5.05e-08   -5.04e-08
Ic:      -3.02e-06   -3.02e-06   -3.02e-06   -3.03e-06   -3.03e-06
Vbe:     -5.70e-01   -5.70e-01   -5.70e-01   -5.70e-01   -5.70e-01
Vbc:      5.99e+00    5.67e+00    5.67e+00    5.02e+00    5.02e+00
Vce:     -6.56e+00   -6.24e+00   -6.24e+00   -5.60e+00   -5.60e+00
BetaDC:   6.00e+01    6.00e+01    6.00e+01    6.00e+01    6.00e+01
Gm:       1.17e-04    1.17e-04    1.17e-04    1.17e-04    1.17e-04
Rpi:      5.14e+05    5.13e+05    5.14e+05    5.12e+05    5.13e+05
Rx:       0.00e+00    0.00e+00    0.00e+00    0.00e+00    0.00e+00
Ro:       0.00e+00    0.00e+00    0.00e+00    7.53e+97    7.56e+97
Cbe:      0.00e+00    0.00e+00    0.00e+00    0.00e+00    0.00e+00
Cbc:      0.00e+00    0.00e+00    0.00e+00    0.00e+00    0.00e+00
Cjs:      0.00e+00    0.00e+00    0.00e+00    0.00e+00    0.00e+00
BetaAC:   6.00e+01    6.00e+01    6.00e+01    6.00e+01    6.00e+01
Cbx:      0.00e+00    0.00e+00    0.00e+00    0.00e+00    0.00e+00
Ft:       0.00e+00    0.00e+00    0.00e+00    0.00e+00    0.00e+00

Name:     q:u7:2      q:u7:1      q:u6:2      q:u6:1      q:u1:2
Model:     u7:qx       u7:qx       u6:qx       u6:qx       u1:qx
Ib:      -4.88e-08   -4.89e-08   -5.05e-08   -5.04e-08   -5.05e-08
Ic:      -2.93e-06   -2.93e-06   -3.03e-06   -3.03e-06   -3.03e-06
Vbe:     -5.70e-01   -5.70e-01   -5.70e-01   -5.70e-01   -5.70e-01
Vbc:      1.50e+01    1.50e+01    5.02e+00    5.02e+00    5.02e+00
Vce:     -1.55e+01   -1.55e+01   -5.60e+00   -5.60e+00   -5.60e+00
BetaDC:   6.00e+01    6.00e+01    6.00e+01    6.00e+01    6.00e+01
Gm:       1.13e-04    1.13e-04    1.17e-04    1.17e-04    1.17e-04
Rpi:      5.30e+05    5.29e+05    5.12e+05    5.13e+05    5.12e+05
Rx:       0.00e+00    0.00e+00    0.00e+00    0.00e+00    0.00e+00
Ro:       0.00e+00    0.00e+00    7.53e+97    7.57e+97    7.53e+97
Cbe:      0.00e+00    0.00e+00    0.00e+00    0.00e+00    0.00e+00
Cbc:      0.00e+00    0.00e+00    0.00e+00    0.00e+00    0.00e+00
Cjs:      0.00e+00    0.00e+00    0.00e+00    0.00e+00    0.00e+00
BetaAC:   6.00e+01    6.00e+01    6.00e+01    6.00e+01    6.00e+01
Cbx:      0.00e+00    0.00e+00    0.00e+00    0.00e+00    0.00e+00
Ft:       0.00e+00    0.00e+00    0.00e+00    0.00e+00    0.00e+00

Name:     q:u1:1           qdut
Model:     u1:qx    2n3415__bjt_npn__1
Ib:      -5.04e-08       3.17e-04
Ic:      -3.03e-06       9.93e-03
Vbe:     -5.70e-01       7.19e-01
Vbc:      5.02e+00       6.49e-01
Vce:     -5.60e+00       7.05e-02
BetaDC:   6.00e+01       3.13e+01
Gm:       1.17e-04       3.59e-01
Rpi:      5.13e+05       7.22e+02
Rx:       0.00e+00       1.00e+01
Ro:       7.56e+97       2.37e+01
Cbe:      0.00e+00       1.89e-10
Cbc:      0.00e+00       4.24e-11
Cjs:      0.00e+00       0.00e+00
BetaAC:   6.00e+01       2.59e+02
Cbx:      0.00e+00       0.00e+00
Ft:       0.00e+00       2.47e+08

                        --- MOSFET Transistors ---
Name:        m:q5:1      m:q6:1      m:q3:1      m:q4:1      m:q7:1
Model:        q5:mm     q6:mn0124     q3:mm     q4:mn0124     q7:mm
Id:         -9.93e-03    1.00e-04   -1.99e-11    1.99e-11   -1.99e-11
Vgs:        -1.00e+01    5.00e+00   -4.15e-02    0.00e+00   -4.15e-02
Vds:        -2.62e-04    1.10e-03   -9.93e+00    9.96e+00   -9.93e+00
Vbs:         0.00e+00    0.00e+00    0.00e+00    0.00e+00    0.00e+00
Vth:        -8.68e-01    1.55e+00   -8.68e-01    1.55e+00   -8.68e-01
Vdsat:      -9.13e+00    3.45e+00   -0.00e+00    0.00e+00   -0.00e+00
Gm:          1.09e-03    2.90e-05    0.00e+00    0.00e+00    0.00e+00
Gds:         3.79e+01    3.71e+00    0.00e+00    0.00e+00    0.00e+00
Gmb:         0.00e+00    0.00e+00    0.00e+00    0.00e+00    0.00e+00
Cbd:         0.00e+00    3.60e-11    0.00e+00    1.09e-11    0.00e+00
Cbs:         0.00e+00    0.00e+00    0.00e+00    0.00e+00    0.00e+00
Cgsov:       1.38e-10    6.00e-15    1.38e-10    6.00e-15    1.38e-10
Cgdov:       1.16e-11    2.00e-16    1.16e-11    2.00e-16    1.16e-11
Cgbov:       0.00e+00    0.00e+00    0.00e+00    0.00e+00    0.00e+00
Cgs:         0.00e+00    0.00e+00    0.00e+00    0.00e+00    0.00e+00
Cgd:         0.00e+00    0.00e+00    0.00e+00    0.00e+00    0.00e+00
Cgb:         0.00e+00    0.00e+00    0.00e+00    0.00e+00    0.00e+00

Name:        m:q8:1      m:q9:1      m:q1:1         mu9            mu14
Model:      q8:mn0124    q9:mint     q1:mint   tn2501__def__1 tn2501__def__1
Id:          1.99e-11   -6.97e-07    6.97e-07     1.53e-11       2.14e-05
Vgs:         0.00e+00   -7.38e-07   -8.12e-07     0.00e+00       5.00e+00
Vds:         9.96e+00   -3.16e-01    5.83e-02     1.04e+00       3.12e-05
Vbs:         0.00e+00    0.00e+00    0.00e+00     0.00e+00       0.00e+00
Vth:         1.55e+00   -1.34e+00   -1.34e+00     6.45e-01       6.50e-01
Vdsat:       0.00e+00   -1.38e-01   -1.38e-01     3.32e-02       3.99e+00
Gm:          0.00e+00    4.59e-06    4.59e-06     3.64e-10       4.87e-06
Gds:         0.00e+00    1.19e-07    8.34e-06     1.75e-12       5.32e+00
Gmb:         0.00e+00    0.00e+00    0.00e+00     7.95e-11       6.04e-07
Cbd:         1.09e-11    0.00e+00    0.00e+00     0.00e+00       0.00e+00
Cbs:         0.00e+00    0.00e+00    0.00e+00     0.00e+00       0.00e+00
Cgsov:       6.00e-15    0.00e+00    0.00e+00     1.48e-10       1.48e-10
Cgdov:       2.00e-16    0.00e+00    0.00e+00     1.87e-11       1.87e-11
Cgbov:       0.00e+00    0.00e+00    0.00e+00     0.00e+00       0.00e+00
Cgs:         0.00e+00    2.30e-12    1.38e-12     0.00e+00       2.81e-11
Cgd:         0.00e+00    0.00e+00    1.99e-12     0.00e+00       2.81e-11
Cgb:         0.00e+00    0.00e+00    0.00e+00     5.61e-11       0.00e+00

Name:        m:q13:1     m:q10:1
Model:      q13:mint    q10:mint
Id:         -3.16e-04    3.37e-04
Vgs:        -1.07e+00   -1.07e+00
Vds:        -3.01e-02    2.65e-02
Vbs:         0.00e+00    0.00e+00
Vth:        -1.34e+00   -1.34e+00
Vdsat:      -1.38e-01   -1.38e-01
Gm:          2.08e-03    2.22e-03
Gds:         8.98e-03    1.11e-02
Gmb:         0.00e+00    0.00e+00
Cbd:         0.00e+00    0.00e+00
Cbs:         0.00e+00    0.00e+00
Cgsov:       0.00e+00    0.00e+00
Cgdov:       0.00e+00    0.00e+00
Cgbov:       0.00e+00    0.00e+00
Cgs:         1.86e-12    1.60e-12
Cgd:         1.58e-12    1.84e-12
Cgb:         0.00e+00    0.00e+00



Date: Fri Mar 10 15:18:39 2023
Total elapsed time: 0.168 seconds.

tnom = 27
temp = 27
method = trap
totiter = 188
traniter = 0
tranpoints = 0
accept = 0
rejected = 0
matrix size = 551
fillins = 1217
solver = Normal

