Circuit: ** ISIM circuit **

Instance "m:dut:2": Length shorter than recommended for a level 1 MOSFET.
Direct Newton iteration for .op point skipped.
Gmin stepping method for .op point skipped.
Starting source stepping with srcstepmethod=0
Source Step = 3.0303%
Source Step = 33.3333%
Source Step = 63.6364%
Source Step = 93.9394%
Source stepping succeeded in finding the operating point.

Semiconductor Device Operating Points:
                        --- Diodes ---
Name:    d:q9:bd     d:q1:bd    d:q13:bd    d:q10:bd     d:u2:n2
Model:   q9:dbd      q1:dbd      q13:dbd     q10:dbd      u2:dy
Id:      0.00e+00    0.00e+00    0.00e+00   -4.44e-10    1.94e-06
Vd:      5.00e-07    2.11e-04   -7.59e-05    7.71e-05    6.00e-01
Req:     8.66e+11    8.65e+11    8.66e+11    8.65e+11    1.33e+04
CAP:     1.31e-11    1.31e-11    1.31e-11    1.31e-11    0.00e+00

Name:    d:u2:n1     d:u2:q2     d:u2:q1     d:u2:p      d:u2:ln
Model:    u2:dy       u2:dx       u2:dx       u2:dx       u2:dx
Id:      1.94e-06   -7.07e-13    5.84e-04   -1.70e-11   -1.06e-11
Vd:      6.00e-01   -7.07e-01    7.07e-01   -1.70e+01   -1.06e+01
Req:     1.33e+04    1.00e+12    4.43e+01    1.00e+12    1.00e+12
CAP:     0.00e+00    0.00e+00    0.00e+00    0.00e+00    0.00e+00

Name:    d:u2:lp     d:u2:e      d:u2:c     d:u12:n2    d:u12:n1
Model:    u2:dx       u2:dx       u2:dx      u12:dy      u12:dy
Id:     -9.42e-12   -1.51e-11    3.07e-14    1.94e-06    1.94e-06
Vd:     -9.42e+00   -1.51e+01    2.90e-02    6.00e-01    6.00e-01
Req:     1.00e+12    1.00e+12    9.13e+11    1.33e+04    1.33e+04
CAP:     0.00e+00    0.00e+00    0.00e+00    0.00e+00    0.00e+00

Name:   d:u12:q2    d:u12:q1     d:u12:p    d:u12:ln    d:u12:lp
Model:   u12:dx      u12:dx      u12:dx      u12:dx      u12:dx
Id:     -5.57e-13    1.74e-06   -1.70e-11   -1.00e-11   -1.00e-11
Vd:     -5.56e-01    5.56e-01   -1.70e+01   -1.00e+01   -1.00e+01
Req:     1.00e+12    1.49e+04    1.00e+12    1.00e+12    1.00e+12
CAP:     0.00e+00    0.00e+00    0.00e+00    0.00e+00    0.00e+00

Name:    d:u12:e     d:u12:c     d:u5:n2     d:u5:n1     d:u5:q2
Model:   u12:dx      u12:dx       u5:dy       u5:dy       u5:dx
Id:     -8.09e-12   -6.96e-12    1.94e-06    1.94e-06   -6.50e-13
Vd:     -8.09e+00   -6.96e+00    6.00e-01    6.00e-01   -6.49e-01
Req:     1.00e+12    1.00e+12    1.33e+04    1.33e+04    1.00e+12
CAP:     0.00e+00    0.00e+00    0.00e+00    0.00e+00    0.00e+00

Name:    d:u5:q1     d:u5:p      d:u5:ln     d:u5:lp     d:u5:e
Model:    u5:dx       u5:dx       u5:dx       u5:dx       u5:dx
Id:      6.34e-05   -1.70e-11   -1.01e-11   -9.94e-12   -7.52e-12
Vd:      6.49e-01   -1.70e+01   -1.01e+01   -9.94e+00   -7.52e+00
Req:     4.08e+02    1.00e+12    1.00e+12    1.00e+12    1.00e+12
CAP:     0.00e+00    0.00e+00    0.00e+00    0.00e+00    0.00e+00

Name:    d:u5:c      d:u4:n2     d:u4:n1     d:u4:q2     d:u4:q1
Model:    u5:dx       u4:dy       u4:dy       u4:dx       u4:dx
Id:     -7.53e-12    1.94e-06    1.94e-06   -6.50e-13    6.34e-05
Vd:     -7.53e+00    6.00e-01    6.00e-01   -6.49e-01    6.49e-01
Req:     1.00e+12    1.33e+04    1.33e+04    1.00e+12    4.08e+02
CAP:     0.00e+00    0.00e+00    0.00e+00    0.00e+00    0.00e+00

Name:    d:u4:p      d:u4:ln     d:u4:lp     d:u4:e      d:u4:c
Model:    u4:dx       u4:dx       u4:dx       u4:dx       u4:dx
Id:     -1.70e-11   -1.01e-11   -9.94e-12   -7.52e-12   -7.53e-12
Vd:     -1.70e+01   -1.01e+01   -9.94e+00   -7.52e+00   -7.53e+00
Req:     1.00e+12    1.00e+12    1.00e+12    1.00e+12    1.00e+12
CAP:     0.00e+00    0.00e+00    0.00e+00    0.00e+00    0.00e+00

Name:    d:u3:n2     d:u3:n1     d:u3:q2     d:u3:q1     d:u3:p
Model:    u3:dy       u3:dy       u3:dx       u3:dx       u3:dx
Id:      1.94e-06    1.94e-06   -6.50e-13    6.34e-05   -1.70e-11
Vd:      6.00e-01    6.00e-01   -6.49e-01    6.49e-01   -1.70e+01
Req:     1.33e+04    1.33e+04    1.00e+12    4.08e+02    1.00e+12
CAP:     0.00e+00    0.00e+00    0.00e+00    0.00e+00    0.00e+00

Name:    d:u3:ln     d:u3:lp     d:u3:e      d:u3:c      d:u8:n2
Model:    u3:dx       u3:dx       u3:dx       u3:dx       u8:dy
Id:     -1.01e-11   -9.94e-12   -7.52e-12   -7.53e-12    1.94e-06
Vd:     -1.01e+01   -9.94e+00   -7.52e+00   -7.53e+00    6.00e-01
Req:     1.00e+12    1.00e+12    1.00e+12    1.00e+12    1.33e+04
CAP:     0.00e+00    0.00e+00    0.00e+00    0.00e+00    0.00e+00

Name:    d:u8:n1     d:u8:q2     d:u8:q1     d:u8:p      d:u8:ln
Model:    u8:dy       u8:dx       u8:dx       u8:dx       u8:dx
Id:      1.94e-06   -6.78e-13    1.86e-04   -1.70e-11   -1.02e-11
Vd:      6.00e-01   -6.77e-01    6.77e-01   -1.70e+01   -1.02e+01
Req:     1.33e+04    1.00e+12    1.39e+02    1.00e+12    1.00e+12
CAP:     0.00e+00    0.00e+00    0.00e+00    0.00e+00    0.00e+00

Name:    d:u8:lp     d:u8:e      d:u8:c      d:u7:n2     d:u7:n1
Model:    u8:dx       u8:dx       u8:dx       u7:dy       u7:dy
Id:     -9.82e-12   -1.36e-11   -1.41e-12    1.94e-06    1.94e-06
Vd:     -9.81e+00   -1.36e+01   -1.41e+00    6.00e-01    6.00e-01
Req:     1.00e+12    1.00e+12    1.00e+12    1.33e+04    1.33e+04
CAP:     0.00e+00    0.00e+00    0.00e+00    0.00e+00    0.00e+00

Name:    d:u7:q2     d:u7:q1     d:u7:p      d:u7:ln     d:u7:lp
Model:    u7:dx       u7:dx       u7:dx       u7:dx       u7:dx
Id:     -6.78e-13    1.86e-04   -1.70e-11   -1.02e-11   -9.82e-12
Vd:     -6.77e-01    6.77e-01   -1.70e+01   -1.02e+01   -9.81e+00
Req:     1.00e+12    1.39e+02    1.00e+12    1.00e+12    1.00e+12
CAP:     0.00e+00    0.00e+00    0.00e+00    0.00e+00    0.00e+00

Name:    d:u7:e      d:u7:c      d:u6:n2     d:u6:n1     d:u6:q2
Model:    u7:dx       u7:dx       u6:dy       u6:dy       u6:dx
Id:     -1.36e-11   -1.41e-12    1.94e-06    1.94e-06   -6.78e-13
Vd:     -1.36e+01   -1.41e+00    6.00e-01    6.00e-01   -6.77e-01
Req:     1.00e+12    1.00e+12    1.33e+04    1.33e+04    1.00e+12
CAP:     0.00e+00    0.00e+00    0.00e+00    0.00e+00    0.00e+00

Name:    d:u6:q1     d:u6:p      d:u6:ln     d:u6:lp     d:u6:e
Model:    u6:dx       u6:dx       u6:dx       u6:dx       u6:dx
Id:      1.86e-04   -1.70e-11   -1.02e-11   -9.82e-12   -1.36e-11
Vd:      6.77e-01   -1.70e+01   -1.02e+01   -9.81e+00   -1.36e+01
Req:     1.39e+02    1.00e+12    1.00e+12    1.00e+12    1.00e+12
CAP:     0.00e+00    0.00e+00    0.00e+00    0.00e+00    0.00e+00

Name:    d:u6:c      d:u1:n2     d:u1:n1     d:u1:q2     d:u1:q1
Model:    u6:dx       u1:dy       u1:dy       u1:dx       u1:dx
Id:     -1.41e-12    1.94e-06    1.94e-06   -6.80e-13    2.00e-04
Vd:     -1.41e+00    6.00e-01    6.00e-01   -6.79e-01    6.79e-01
Req:     1.00e+12    1.33e+04    1.33e+04    1.00e+12    1.30e+02
CAP:     0.00e+00    0.00e+00    0.00e+00    0.00e+00    0.00e+00

Name:    d:u1:p      d:u1:ln     d:u1:lp     d:u1:e      d:u1:c
Model:    u1:dx       u1:dx       u1:dx       u1:dx       u1:dx
Id:     -1.70e-11   -1.02e-11   -9.80e-12   -1.43e-11   -7.17e-13
Vd:     -1.70e+01   -1.02e+01   -9.80e+00   -1.43e+01   -7.16e-01
Req:     1.00e+12    1.00e+12    1.00e+12    1.00e+12    1.00e+12
CAP:     0.00e+00    0.00e+00    0.00e+00    0.00e+00    0.00e+00

Name:    d:q5:4      d:q5:3      d:q5:2      d:q5:1      d:q6:1
Model:   q5:md3      q5:md2      q5:md1       q5:md     q6:dn0124
Id:     -1.01e-10   -1.11e-10   -6.67e-13   -9.47e-09   -1.30e-11
Vd:     -6.67e-01   -6.67e-01   -6.67e-01   -7.08e-01   -9.96e+00
Req:     1.00e+12    1.00e+12    1.00e+12    9.97e+11    1.00e+12
CAP:     0.00e+00    0.00e+00    3.23e-11    1.85e-11    0.00e+00

Name:    d:q3:4      d:q3:3      d:q3:2      d:q3:1      d:q4:1
Model:   q3:md3      q3:md2      q3:md1       q3:md     q4:dn0124
Id:     -1.01e-10   -1.11e-10   -6.67e-13   -9.47e-09   -1.30e-11
Vd:     -6.67e-01   -6.67e-01   -6.67e-01   -7.08e-01   -9.96e+00
Req:     1.00e+12    1.00e+12    1.00e+12    9.97e+11    1.00e+12
CAP:     0.00e+00    0.00e+00    3.23e-11    1.85e-11    0.00e+00

Name:    d:q7:4      d:q7:3      d:q7:2      d:q7:1      d:q8:1
Model:   q7:md3      q7:md2      q7:md1       q7:md     q8:dn0124
Id:      9.72e+00    9.72e+00    2.62e-13   -3.09e-09   -1.25e-13
Vd:      2.62e-01    2.62e-01    2.62e-01   -1.54e-02   -1.10e-03
Req:     1.06e-03    1.06e-03    1.00e+12    6.09e+06    8.93e+09
CAP:     0.00e+00    0.00e+00    1.02e-10    2.21e-11    0.00e+00

Name:    d:dut:1
Model:  dut:dbody
Id:     -9.42e-12
Vd:     -9.29e+00
Req:     1.00e+12
CAP:     1.62e-11

                        --- Bipolar Transistors ---
Name:     q:u2:2      q:u2:1      q:u12:2     q:u12:1          qq2
Model:     u2:qx       u2:qx      u12:qx      u12:qx    qbd135__bjt_npn__1
Ib:      -4.96e-08   -4.97e-08   -5.02e-08   -5.02e-08       5.84e-04
Ic:      -2.98e-06   -2.98e-06   -3.01e-06   -3.01e-06       6.93e-02
Vbe:     -5.70e-01   -5.70e-01   -5.70e-01   -5.70e-01       7.30e-01
Vbc:      9.95e+00    9.95e+00    6.54e+00    6.54e+00      -1.27e+00
Vce:     -1.05e+01   -1.05e+01   -7.11e+00   -7.11e+00       2.00e+00
BetaDC:   6.00e+01    6.00e+01    6.00e+01    6.00e+01       1.19e+02
Gm:       1.15e-04    1.15e-04    1.17e-04    1.16e-04       2.60e+00
Rpi:      5.21e+05    5.21e+05    5.15e+05    5.15e+05       4.38e+01
Rx:       0.00e+00    0.00e+00    0.00e+00    0.00e+00       5.00e-01
Ro:       0.00e+00    0.00e+00    0.00e+00    0.00e+00       3.19e+03
Cbe:      0.00e+00    0.00e+00    0.00e+00    0.00e+00       2.13e-09
Cbc:      0.00e+00    0.00e+00    0.00e+00    0.00e+00       1.82e-11
Cjs:      0.00e+00    0.00e+00    0.00e+00    0.00e+00       0.00e+00
BetaAC:   6.00e+01    6.00e+01    6.00e+01    6.00e+01       1.14e+02
Cbx:      0.00e+00    0.00e+00    0.00e+00    0.00e+00       0.00e+00
Ft:       0.00e+00    0.00e+00    0.00e+00    0.00e+00       1.92e+08

Name:          qq11                   qq12              q:u5:2      q:u5:1      q:u4:2
Model:  qbd135__bjt_npn__1 qbc51-10pa/nxp__bjt_pnp__1    u5:qx       u5:qx       u4:qx
Ib:          1.74e-06               9.33e-12           -4.99e-08   -5.00e-08   -4.99e-08
Ic:          2.20e-04              -8.76e-12           -3.00e-06   -3.00e-06   -3.00e-06
Vbe:         5.69e-01               5.69e-01           -5.70e-01   -5.70e-01   -5.70e-01
Vbc:        -8.26e+00               8.74e+00            8.13e+00    8.13e+00    8.13e+00
Vce:         8.83e+00              -8.17e+00           -8.70e+00   -8.70e+00   -8.70e+00
BetaDC:      1.27e+02              -9.39e-01            6.00e+01    6.00e+01    6.00e+01
Gm:          8.61e-03               6.19e-22            1.16e-04    1.16e-04    1.16e-04
Rpi:         1.48e+04               1.00e+12            5.18e+05    5.18e+05    5.18e+05
Rx:          5.00e-01               2.00e+00            0.00e+00    0.00e+00    0.00e+00
Ro:          1.04e+06               7.39e+24            0.00e+00    0.00e+00    0.00e+00
Cbe:         2.15e-10               9.32e-11            0.00e+00    0.00e+00    0.00e+00
Cbc:         9.14e-12               6.94e-12            0.00e+00    0.00e+00    0.00e+00
Cjs:         0.00e+00               0.00e+00            0.00e+00    0.00e+00    0.00e+00
BetaAC:      1.27e+02               6.19e-10            6.00e+01    6.00e+01    6.00e+01
Cbx:         0.00e+00               8.83e-12            0.00e+00    0.00e+00    0.00e+00
Ft:          6.11e+06               1.46e-03            0.00e+00    0.00e+00    0.00e+00

Name:     q:u4:1      q:u3:2      q:u3:1      q:u8:2      q:u8:1
Model:     u4:qx       u3:qx       u3:qx       u8:qx       u8:qx
Ib:      -5.00e-08   -4.99e-08   -5.00e-08   -4.89e-08   -4.90e-08
Ic:      -3.00e-06   -3.00e-06   -3.00e-06   -2.93e-06   -2.94e-06
Vbe:     -5.70e-01   -5.70e-01   -5.70e-01   -5.70e-01   -5.70e-01
Vbc:      8.13e+00    8.13e+00    8.13e+00    1.42e+01    1.42e+01
Vce:     -8.70e+00   -8.70e+00   -8.70e+00   -1.48e+01   -1.48e+01
BetaDC:   6.00e+01    6.00e+01    6.00e+01    6.00e+01    6.00e+01
Gm:       1.16e-04    1.16e-04    1.16e-04    1.13e-04    1.14e-04
Rpi:      5.18e+05    5.18e+05    5.18e+05    5.29e+05    5.28e+05
Rx:       0.00e+00    0.00e+00    0.00e+00    0.00e+00    0.00e+00
Ro:       0.00e+00    0.00e+00    0.00e+00    0.00e+00    0.00e+00
Cbe:      0.00e+00    0.00e+00    0.00e+00    0.00e+00    0.00e+00
Cbc:      0.00e+00    0.00e+00    0.00e+00    0.00e+00    0.00e+00
Cjs:      0.00e+00    0.00e+00    0.00e+00    0.00e+00    0.00e+00
BetaAC:   6.00e+01    6.00e+01    6.00e+01    6.00e+01    6.00e+01
Cbx:      0.00e+00    0.00e+00    0.00e+00    0.00e+00    0.00e+00
Ft:       0.00e+00    0.00e+00    0.00e+00    0.00e+00    0.00e+00

Name:     q:u7:2      q:u7:1      q:u6:2      q:u6:1      q:u1:2
Model:     u7:qx       u7:qx       u6:qx       u6:qx       u1:qx
Ib:      -4.89e-08   -4.90e-08   -4.89e-08   -4.90e-08   -4.88e-08
Ic:      -2.93e-06   -2.94e-06   -2.93e-06   -2.94e-06   -2.93e-06
Vbe:     -5.70e-01   -5.70e-01   -5.70e-01   -5.70e-01   -5.70e-01
Vbc:      1.42e+01    1.42e+01    1.42e+01    1.42e+01    1.49e+01
Vce:     -1.48e+01   -1.48e+01   -1.48e+01   -1.48e+01   -1.55e+01
BetaDC:   6.00e+01    6.00e+01    6.00e+01    6.00e+01    6.00e+01
Gm:       1.13e-04    1.14e-04    1.13e-04    1.14e-04    1.13e-04
Rpi:      5.29e+05    5.28e+05    5.29e+05    5.28e+05    5.30e+05
Rx:       0.00e+00    0.00e+00    0.00e+00    0.00e+00    0.00e+00
Ro:       0.00e+00    0.00e+00    0.00e+00    0.00e+00    0.00e+00
Cbe:      0.00e+00    0.00e+00    0.00e+00    0.00e+00    0.00e+00
Cbc:      0.00e+00    0.00e+00    0.00e+00    0.00e+00    0.00e+00
Cjs:      0.00e+00    0.00e+00    0.00e+00    0.00e+00    0.00e+00
BetaAC:   6.00e+01    6.00e+01    6.00e+01    6.00e+01    6.00e+01
Cbx:      0.00e+00    0.00e+00    0.00e+00    0.00e+00    0.00e+00
Ft:       0.00e+00    0.00e+00    0.00e+00    0.00e+00    0.00e+00

Name:     q:u1:1
Model:     u1:qx
Ib:      -4.89e-08
Ic:      -2.93e-06
Vbe:     -5.70e-01
Vbc:      1.49e+01
Vce:     -1.55e+01
BetaDC:   6.00e+01
Gm:       1.13e-04
Rpi:      5.29e+05
Rx:       0.00e+00
Ro:       0.00e+00
Cbe:      0.00e+00
Cbc:      0.00e+00
Cjs:      0.00e+00
BetaAC:   6.00e+01
Cbx:      0.00e+00
Ft:       0.00e+00

                        --- MOSFET Transistors ---
Name:        m:q5:1      m:q6:1      m:q3:1      m:q4:1      m:q7:1
Model:        q5:mm     q6:mn0124     q3:mm     q4:mn0124     q7:mm
Id:         -1.42e-12    1.99e-11   -1.42e-12    1.99e-11   -6.93e-02
Vgs:        -4.15e-02    0.00e+00   -4.15e-02    0.00e+00   -9.99e+00
Vds:        -7.08e-01    9.96e+00   -7.08e-01    9.96e+00   -1.83e-03
Vbs:         0.00e+00    0.00e+00    0.00e+00    0.00e+00    0.00e+00
Vth:        -8.68e-01    1.55e+00   -8.68e-01    1.55e+00   -8.68e-01
Vdsat:      -0.00e+00    0.00e+00   -0.00e+00    0.00e+00   -9.12e+00
Gm:          0.00e+00    0.00e+00    0.00e+00    0.00e+00    7.60e-03
Gds:         0.00e+00    0.00e+00    0.00e+00    0.00e+00    3.79e+01
Gmb:         0.00e+00    0.00e+00    0.00e+00    0.00e+00    0.00e+00
Cbd:         0.00e+00    1.09e-11    0.00e+00    1.09e-11    0.00e+00
Cbs:         0.00e+00    0.00e+00    0.00e+00    0.00e+00    0.00e+00
Cgsov:       1.38e-10    6.00e-15    1.38e-10    6.00e-15    1.38e-10
Cgdov:       1.16e-11    2.00e-16    1.16e-11    2.00e-16    1.16e-11
Cgbov:       0.00e+00    0.00e+00    0.00e+00    0.00e+00    0.00e+00
Cgs:         0.00e+00    0.00e+00    0.00e+00    0.00e+00    0.00e+00
Cgd:         0.00e+00    0.00e+00    0.00e+00    0.00e+00    0.00e+00
Cgb:         0.00e+00    0.00e+00    0.00e+00    0.00e+00    0.00e+00

Name:        m:q8:1      m:dut:2     m:q9:1      m:q1:1         mu9
Model:      q8:mn0124   dut:most2    q9:mint     q1:mint   tn2501__def__1
Id:          1.00e-04   -3.46e-19    1.51e-07    6.35e-05     6.36e-05
Vgs:         5.00e+00   -6.12e+00   -3.17e+00   -3.17e+00     5.00e+00
Vds:         1.10e-03   -1.39e+00    1.62e-07    6.82e-05     9.27e-05
Vbs:         0.00e+00   -9.29e+00    0.00e+00    0.00e+00     0.00e+00
Vth:         1.55e+00   -4.73e+00   -1.34e+00   -1.34e+00     6.50e-01
Vdsat:       3.45e+00    1.14e-05   -6.66e-01   -6.66e-01     3.99e+00
Gm:          2.90e-05    1.15e-06    7.56e-08    3.19e-05     1.45e-05
Gds:         3.71e+00    0.00e+00    9.30e-01    9.30e-01     5.32e+00
Gmb:         0.00e+00    0.00e+00   -0.00e+00   -0.00e+00     1.80e-06
Cbd:         3.60e-11    0.00e+00    0.00e+00    0.00e+00     0.00e+00
Cbs:         0.00e+00    0.00e+00    0.00e+00    0.00e+00     0.00e+00
Cgsov:       6.00e-15    0.00e+00    0.00e+00    0.00e+00     1.48e-10
Cgdov:       2.00e-16    0.00e+00    0.00e+00    0.00e+00     1.87e-11
Cgbov:       0.00e+00    0.00e+00    0.00e+00    0.00e+00     0.00e+00
Cgs:         0.00e+00    0.00e+00    1.73e-12    1.73e-12     2.81e-11
Cgd:         0.00e+00    0.00e+00    1.73e-12    1.73e-12     2.81e-11
Cgb:         0.00e+00    0.00e+00    0.00e+00    0.00e+00     0.00e+00

Name:           mu14        m:q13:1     m:q10:1     m:dut:1
Model:     tn2501__def__1  q13:mint    q10:mint    dut:most1
Id:           2.39e-11     -8.18e-10    8.32e-10    6.93e-02
Vgs:          0.00e+00     -1.25e-06   -1.25e-06    3.17e+00
Vds:          3.17e+00     -7.59e-05    7.71e-05    9.29e+00
Vbs:          0.00e+00      0.00e+00    0.00e+00    0.00e+00
Vth:          6.35e-01     -1.34e+00   -1.34e+00    2.00e+00
Vdsat:        3.32e-02     -1.38e-01   -1.38e-01    1.17e+00
Gm:           4.84e-10      5.39e-09    5.48e-09    1.18e-01
Gds:          2.32e-12      1.08e-05    1.08e-05    0.00e+00
Gmb:          1.05e-10      0.00e+00    0.00e+00    0.00e+00
Cbd:          0.00e+00      0.00e+00    0.00e+00    0.00e+00
Cbs:          0.00e+00      0.00e+00    0.00e+00    0.00e+00
Cgsov:        1.48e-10      0.00e+00    0.00e+00    0.00e+00
Cgdov:        1.87e-11      0.00e+00    0.00e+00    0.00e+00
Cgbov:        0.00e+00      0.00e+00    0.00e+00    0.00e+00
Cgs:          0.00e+00      1.73e-12    1.73e-12    4.47e-12
Cgd:          0.00e+00      1.73e-12    1.73e-12    0.00e+00
Cgb:          5.61e-11      0.00e+00    0.00e+00    0.00e+00



Date: Sun Mar 12 16:00:33 2023
Total elapsed time: 0.146 seconds.

tnom = 27
temp = 27
method = trap
totiter = 174
traniter = 0
tranpoints = 0
accept = 0
rejected = 0
matrix size = 554
fillins = 1211
solver = Normal

