Circuit: ** ISIM circuit **

Direct Newton iteration for .op point skipped.
Gmin stepping method for .op point skipped.
Starting source stepping with srcstepmethod=0
Source Step = 3.0303%
Source Step = 33.3333%
Source Step = 63.6364%
Source Step = 93.9394%
Source stepping succeeded in finding the operating point.

Semiconductor Device Operating Points:
                        --- Diodes ---
Name:    d:q9:bd     d:q1:bd    d:q13:bd    d:q10:bd     d:u2:n2
Model:   q9:dbd      q1:dbd      q13:dbd     q10:dbd      u2:dy
Id:     -1.73e-12    5.42e-14   -1.73e-12    0.00e+00    1.94e-06
Vd:      8.13e-03   -3.20e-03    5.56e-03   -5.77e-03    6.00e-01
Req:     8.25e+11    8.79e+11    8.39e+11    8.90e+11    1.33e+04
CAP:     1.32e-11    1.31e-11    1.32e-11    1.31e-11    0.00e+00

Name:    d:u2:n1     d:u2:q2     d:u2:q1     d:u2:p      d:u2:ln
Model:    u2:dy       u2:dx       u2:dx       u2:dx       u2:dx
Id:      1.94e-06   -7.67e-13    5.81e-03   -1.70e-11   -1.58e-11
Vd:      6.00e-01   -7.66e-01    7.66e-01   -1.70e+01   -1.58e+01
Req:     1.33e+04    1.00e+12    4.45e+00    1.00e+12    1.00e+12
CAP:     0.00e+00    0.00e+00    0.00e+00    0.00e+00    0.00e+00

Name:    d:u2:lp     d:u2:e      d:u2:c     d:u12:n2    d:u12:n1
Model:    u2:dx       u2:dx       u2:dx      u12:dy      u12:dy
Id:     -4.19e-12   -1.52e-11    7.06e-13    1.94e-06    1.94e-06
Vd:     -4.19e+00   -1.52e+01    1.68e-01    6.00e-01    6.00e-01
Req:     1.00e+12    1.00e+12    4.59e+10    1.33e+04    1.33e+04
CAP:     0.00e+00    0.00e+00    0.00e+00    0.00e+00    0.00e+00

Name:   d:u12:q2    d:u12:q1     d:u12:p    d:u12:ln    d:u12:lp
Model:   u12:dx      u12:dx      u12:dx      u12:dx      u12:dx
Id:      9.97e-10   -3.64e-13   -1.70e-11   -1.00e-11   -1.00e-11
Vd:      3.63e-01   -3.63e-01   -1.70e+01   -1.00e+01   -1.00e+01
Req:     2.59e+07    1.00e+12    1.00e+12    1.00e+12    1.00e+12
CAP:     0.00e+00    0.00e+00    0.00e+00    0.00e+00    0.00e+00

Name:    d:u12:e     d:u12:c     d:u5:n2     d:u5:n1     d:u5:q2
Model:   u12:dx      u12:dx       u5:dy       u5:dy       u5:dx
Id:     -3.98e-12   -1.11e-11    1.94e-06    1.94e-06   -4.97e-13
Vd:     -3.98e+00   -1.11e+01    6.00e-01    6.00e-01   -4.96e-01
Req:     1.00e+12    1.00e+12    1.33e+04    1.33e+04    1.00e+12
CAP:     0.00e+00    0.00e+00    0.00e+00    0.00e+00    0.00e+00

Name:    d:u5:q1     d:u5:p      d:u5:ln     d:u5:lp     d:u5:e
Model:    u5:dx       u5:dx       u5:dx       u5:dx       u5:dx
Id:      1.70e-07   -1.70e-11   -1.00e-11   -1.00e-11   -4.36e-12
Vd:      4.96e-01   -1.70e+01   -1.00e+01   -1.00e+01   -4.36e+00
Req:     1.53e+05    1.00e+12    1.00e+12    1.00e+12    1.00e+12
CAP:     0.00e+00    0.00e+00    0.00e+00    0.00e+00    0.00e+00

Name:    d:u5:c      d:u4:n2     d:u4:n1     d:u4:q2     d:u4:q1
Model:    u5:dx       u4:dy       u4:dy       u4:dx       u4:dx
Id:     -1.07e-11    1.94e-06    1.94e-06   -4.97e-13    1.69e-07
Vd:     -1.07e+01    6.00e-01    6.00e-01   -4.96e-01    4.96e-01
Req:     1.00e+12    1.33e+04    1.33e+04    1.00e+12    1.53e+05
CAP:     0.00e+00    0.00e+00    0.00e+00    0.00e+00    0.00e+00

Name:    d:u4:p      d:u4:ln     d:u4:lp     d:u4:e      d:u4:c
Model:    u4:dx       u4:dx       u4:dx       u4:dx       u4:dx
Id:     -1.70e-11   -1.00e-11   -1.00e-11   -4.36e-12   -1.07e-11
Vd:     -1.70e+01   -1.00e+01   -1.00e+01   -4.36e+00   -1.07e+01
Req:     1.00e+12    1.00e+12    1.00e+12    1.00e+12    1.00e+12
CAP:     0.00e+00    0.00e+00    0.00e+00    0.00e+00    0.00e+00

Name:    d:u3:n2     d:u3:n1     d:u3:q2     d:u3:q1     d:u3:p
Model:    u3:dy       u3:dy       u3:dx       u3:dx       u3:dx
Id:      1.94e-06    1.94e-06   -4.97e-13    1.70e-07   -1.70e-11
Vd:      6.00e-01    6.00e-01   -4.96e-01    4.96e-01   -1.70e+01
Req:     1.33e+04    1.33e+04    1.00e+12    1.53e+05    1.00e+12
CAP:     0.00e+00    0.00e+00    0.00e+00    0.00e+00    0.00e+00

Name:    d:u3:ln     d:u3:lp     d:u3:e      d:u3:c      d:u8:n2
Model:    u3:dx       u3:dx       u3:dx       u3:dx       u8:dy
Id:     -1.00e-11   -1.00e-11   -4.36e-12   -1.07e-11    1.94e-06
Vd:     -1.00e+01   -1.00e+01   -4.36e+00   -1.07e+01    6.00e-01
Req:     1.00e+12    1.00e+12    1.00e+12    1.00e+12    1.33e+04
CAP:     0.00e+00    0.00e+00    0.00e+00    0.00e+00    0.00e+00

Name:    d:u8:n1     d:u8:q2     d:u8:q1     d:u8:p      d:u8:ln
Model:    u8:dy       u8:dx       u8:dx       u8:dx       u8:dx
Id:      1.94e-06   -6.59e-13    8.91e-05   -1.70e-11   -1.01e-11
Vd:      6.00e-01   -6.58e-01    6.58e-01   -1.70e+01   -1.01e+01
Req:     1.33e+04    1.00e+12    2.90e+02    1.00e+12    1.00e+12
CAP:     0.00e+00    0.00e+00    0.00e+00    0.00e+00    0.00e+00

Name:    d:u8:lp     d:u8:e      d:u8:c      d:u7:n2     d:u7:n1
Model:    u8:dx       u8:dx       u8:dx       u7:dy       u7:dy
Id:     -9.91e-12   -8.81e-12   -6.24e-12    1.94e-06    1.94e-06
Vd:     -9.91e+00   -8.81e+00   -6.24e+00    6.00e-01    6.00e-01
Req:     1.00e+12    1.00e+12    1.00e+12    1.33e+04    1.33e+04
CAP:     0.00e+00    0.00e+00    0.00e+00    0.00e+00    0.00e+00

Name:    d:u7:q2     d:u7:q1     d:u7:p      d:u7:ln     d:u7:lp
Model:    u7:dx       u7:dx       u7:dx       u7:dx       u7:dx
Id:     -6.59e-13    8.91e-05   -1.70e-11   -1.01e-11   -9.91e-12
Vd:     -6.58e-01    6.58e-01   -1.70e+01   -1.01e+01   -9.91e+00
Req:     1.00e+12    2.90e+02    1.00e+12    1.00e+12    1.00e+12
CAP:     0.00e+00    0.00e+00    0.00e+00    0.00e+00    0.00e+00

Name:    d:u7:e      d:u7:c      d:u6:n2     d:u6:n1     d:u6:q2
Model:    u7:dx       u7:dx       u6:dy       u6:dy       u6:dx
Id:     -8.81e-12   -6.24e-12    1.94e-06    1.94e-06   -6.59e-13
Vd:     -8.81e+00   -6.24e+00    6.00e-01    6.00e-01   -6.58e-01
Req:     1.00e+12    1.00e+12    1.33e+04    1.33e+04    1.00e+12
CAP:     0.00e+00    0.00e+00    0.00e+00    0.00e+00    0.00e+00

Name:    d:u6:q1     d:u6:p      d:u6:ln     d:u6:lp     d:u6:e
Model:    u6:dx       u6:dx       u6:dx       u6:dx       u6:dx
Id:      8.91e-05   -1.70e-11   -1.01e-11   -9.91e-12   -8.81e-12
Vd:      6.58e-01   -1.70e+01   -1.01e+01   -9.91e+00   -8.81e+00
Req:     2.90e+02    1.00e+12    1.00e+12    1.00e+12    1.00e+12
CAP:     0.00e+00    0.00e+00    0.00e+00    0.00e+00    0.00e+00

Name:    d:u6:c      d:u1:n2     d:u1:n1     d:u1:q2     d:u1:q1
Model:    u6:dx       u1:dy       u1:dy       u1:dx       u1:dx
Id:     -6.24e-12    1.94e-06    1.94e-06   -6.79e-13    1.98e-04
Vd:     -6.24e+00    6.00e-01    6.00e-01   -6.78e-01    6.78e-01
Req:     1.00e+12    1.33e+04    1.33e+04    1.00e+12    1.31e+02
CAP:     0.00e+00    0.00e+00    0.00e+00    0.00e+00    0.00e+00

Name:    d:u1:p      d:u1:ln     d:u1:lp     d:u1:e      d:u1:c
Model:    u1:dx       u1:dx       u1:dx       u1:dx       u1:dx
Id:     -1.70e-11   -1.02e-11   -9.80e-12   -1.42e-11   -8.22e-13
Vd:     -1.70e+01   -1.02e+01   -9.80e+00   -1.42e+01   -8.21e-01
Req:     1.00e+12    1.00e+12    1.00e+12    1.00e+12    1.00e+12
CAP:     0.00e+00    0.00e+00    0.00e+00    0.00e+00    0.00e+00

Name:    d:q5:4      d:q5:3      d:q5:2      d:q5:1      d:q6:1
Model:   q5:md3      q5:md2      q5:md1       q5:md     q6:dn0124
Id:     -1.05e-10    0.00e+00   -5.50e-12   -9.47e-09   -1.30e-11
Vd:     -5.50e+00   -5.50e+00   -5.50e+00   -5.54e+00   -9.96e+00
Req:     1.00e+12    1.00e+12    1.00e+12    1.00e+12    1.00e+12
CAP:     0.00e+00    0.00e+00    7.40e-12    9.34e-12    0.00e+00

Name:    d:q3:4      d:q3:3      d:q3:2      d:q3:1      d:q4:1
Model:   q3:md3      q3:md2      q3:md1       q3:md     q4:dn0124
Id:     -1.05e-10    0.00e+00   -5.50e-12   -9.47e-09   -1.30e-11
Vd:     -5.50e+00   -5.50e+00   -5.50e+00   -5.54e+00   -9.96e+00
Req:     1.00e+12    1.00e+12    1.00e+12    1.00e+12    1.00e+12
CAP:     0.00e+00    0.00e+00    7.40e-12    9.34e-12    0.00e+00

Name:    d:q7:4      d:q7:3      d:q7:2      d:q7:1      d:q8:1
Model:   q7:md3      q7:md2      q7:md1       q7:md     q8:dn0124
Id:      9.63e+00    9.63e+00    2.62e-13   -9.04e-09   -1.25e-13
Vd:      2.62e-01    2.62e-01    2.62e-01   -1.20e-01   -1.10e-03
Req:     1.07e-03    1.07e-03    1.00e+12    9.08e+07    8.93e+09
CAP:     0.00e+00    0.00e+00    1.02e-10    2.14e-11    0.00e+00

Name:    d:dut:4     d:dut:3     d:dut:2     d:dut:1
Model:   dut:md3     dut:md2     dut:md1     dut:md
Id:      8.42e-01    8.42e-01    2.36e-13   -4.50e-12
Vd:      2.36e-01    2.36e-01    2.36e-01   -4.46e+00
Req:     1.23e-02    1.23e-02    1.00e+12    1.00e+12
CAP:     0.00e+00    0.00e+00    9.18e-12    6.17e-12

                        --- Bipolar Transistors ---
Name:     q:u2:2      q:u2:1      q:u12:2     q:u12:1          qq2
Model:     u2:qx       u2:qx      u12:qx      u12:qx    qbd135__bjt_npn__1
Ib:      -4.96e-08   -4.97e-08   -5.05e-08   -5.04e-08       5.81e-03
Ic:      -2.98e-06   -2.98e-06   -3.03e-06   -3.03e-06       5.37e-01
Vbe:     -5.70e-01   -5.70e-01   -5.70e-01   -5.70e-01       8.69e-01
Vbc:      9.95e+00    9.95e+00    4.95e+00    4.95e+00      -1.13e+00
Vce:     -1.05e+01   -1.05e+01   -5.52e+00   -5.52e+00       2.00e+00
BetaDC:   6.00e+01    6.00e+01    6.00e+01    6.00e+01       9.24e+01
Gm:       1.15e-04    1.15e-04    1.17e-04    1.17e-04       1.67e+01
Rpi:      5.21e+05    5.21e+05    5.12e+05    5.13e+05       4.41e+00
Rx:       0.00e+00    0.00e+00    0.00e+00    0.00e+00       5.00e-01
Ro:       0.00e+00    0.00e+00    4.93e+96    4.95e+96       4.12e+02
Cbe:      0.00e+00    0.00e+00    0.00e+00    0.00e+00       3.41e-08
Cbc:      0.00e+00    0.00e+00    0.00e+00    0.00e+00       1.90e-11
Cjs:      0.00e+00    0.00e+00    0.00e+00    0.00e+00       0.00e+00
BetaAC:   6.00e+01    6.00e+01    6.00e+01    6.00e+01       7.38e+01
Cbx:      0.00e+00    0.00e+00    0.00e+00    0.00e+00       0.00e+00
Ft:       0.00e+00    0.00e+00    0.00e+00    0.00e+00       7.80e+07

Name:          qq11                   qq12              q:u5:2      q:u5:1      q:u4:2
Model:  qbd135__bjt_npn__1 qbc51-10pa/nxp__bjt_pnp__1    u5:qx       u5:qx       u4:qx
Ib:         -1.29e-11              -9.78e-10           -5.05e-08   -5.04e-08   -5.05e-08
Ic:          1.25e-11              -1.39e-07           -3.03e-06   -3.03e-06   -3.03e-06
Vbe:        -3.74e-01              -3.74e-01           -5.70e-01   -5.70e-01   -5.70e-01
Vbc:        -1.24e+01               4.63e+00            4.97e+00    4.97e+00    4.96e+00
Vce:         1.20e+01              -5.00e+00           -5.54e+00   -5.54e+00   -5.54e+00
BetaDC:     -9.68e-01               1.42e+02            6.00e+01    6.00e+01    6.00e+01
Gm:          8.85e-19               5.41e-06            1.17e-04    1.17e-04    1.17e-04
Rpi:         1.00e+12               2.63e+07            5.12e+05    5.13e+05    5.12e+05
Rx:          5.00e-01               2.00e+00            0.00e+00    0.00e+00    0.00e+00
Ro:          1.04e+22               7.77e+08            7.52e+96    7.55e+96    7.52e+96
Cbe:         1.08e-10               1.52e-10            0.00e+00    0.00e+00    0.00e+00
Cbc:         7.73e-12               9.02e-12            0.00e+00    0.00e+00    0.00e+00
Cjs:         0.00e+00               0.00e+00            0.00e+00    0.00e+00    0.00e+00
BetaAC:      8.85e-07               1.42e+02            6.00e+01    6.00e+01    6.00e+01
Cbx:         0.00e+00               1.15e-11            0.00e+00    0.00e+00    0.00e+00
Ft:          1.38e-03               5.00e+03            0.00e+00    0.00e+00    0.00e+00

Name:     q:u4:1      q:u3:2      q:u3:1      q:u8:2      q:u8:1
Model:     u4:qx       u3:qx       u3:qx       u8:qx       u8:qx
Ib:      -5.04e-08   -5.05e-08   -5.04e-08   -4.97e-08   -4.98e-08
Ic:      -3.03e-06   -3.03e-06   -3.03e-06   -2.98e-06   -2.99e-06
Vbe:     -5.70e-01   -5.70e-01   -5.70e-01   -5.70e-01   -5.70e-01
Vbc:      4.97e+00    4.97e+00    4.97e+00    9.41e+00    9.41e+00
Vce:     -5.54e+00   -5.54e+00   -5.54e+00   -9.98e+00   -9.98e+00
BetaDC:   6.00e+01    6.00e+01    6.00e+01    6.00e+01    6.00e+01
Gm:       1.17e-04    1.17e-04    1.17e-04    1.15e-04    1.15e-04
Rpi:      5.13e+05    5.12e+05    5.13e+05    5.20e+05    5.20e+05
Rx:       0.00e+00    0.00e+00    0.00e+00    0.00e+00    0.00e+00
Ro:       7.55e+96    7.52e+96    7.55e+96    0.00e+00    0.00e+00
Cbe:      0.00e+00    0.00e+00    0.00e+00    0.00e+00    0.00e+00
Cbc:      0.00e+00    0.00e+00    0.00e+00    0.00e+00    0.00e+00
Cjs:      0.00e+00    0.00e+00    0.00e+00    0.00e+00    0.00e+00
BetaAC:   6.00e+01    6.00e+01    6.00e+01    6.00e+01    6.00e+01
Cbx:      0.00e+00    0.00e+00    0.00e+00    0.00e+00    0.00e+00
Ft:       0.00e+00    0.00e+00    0.00e+00    0.00e+00    0.00e+00

Name:     q:u7:2      q:u7:1      q:u6:2      q:u6:1      q:u1:2
Model:     u7:qx       u7:qx       u6:qx       u6:qx       u1:qx
Ib:      -4.97e-08   -4.98e-08   -4.97e-08   -4.98e-08   -4.88e-08
Ic:      -2.98e-06   -2.99e-06   -2.98e-06   -2.99e-06   -2.93e-06
Vbe:     -5.70e-01   -5.70e-01   -5.70e-01   -5.70e-01   -5.70e-01
Vbc:      9.41e+00    9.41e+00    9.41e+00    9.41e+00    1.48e+01
Vce:     -9.98e+00   -9.98e+00   -9.98e+00   -9.98e+00   -1.54e+01
BetaDC:   6.00e+01    6.00e+01    6.00e+01    6.00e+01    6.00e+01
Gm:       1.15e-04    1.15e-04    1.15e-04    1.15e-04    1.13e-04
Rpi:      5.20e+05    5.20e+05    5.20e+05    5.20e+05    5.30e+05
Rx:       0.00e+00    0.00e+00    0.00e+00    0.00e+00    0.00e+00
Ro:       0.00e+00    0.00e+00    0.00e+00    0.00e+00    0.00e+00
Cbe:      0.00e+00    0.00e+00    0.00e+00    0.00e+00    0.00e+00
Cbc:      0.00e+00    0.00e+00    0.00e+00    0.00e+00    0.00e+00
Cjs:      0.00e+00    0.00e+00    0.00e+00    0.00e+00    0.00e+00
BetaAC:   6.00e+01    6.00e+01    6.00e+01    6.00e+01    6.00e+01
Cbx:      0.00e+00    0.00e+00    0.00e+00    0.00e+00    0.00e+00
Ft:       0.00e+00    0.00e+00    0.00e+00    0.00e+00    0.00e+00

Name:     q:u1:1
Model:     u1:qx
Ib:      -4.89e-08
Ic:      -2.94e-06
Vbe:     -5.70e-01
Vbc:      1.48e+01
Vce:     -1.54e+01
BetaDC:   6.00e+01
Gm:       1.14e-04
Rpi:      5.29e+05
Rx:       0.00e+00
Ro:       0.00e+00
Cbe:      0.00e+00
Cbc:      0.00e+00
Cjs:      0.00e+00
BetaAC:   6.00e+01
Cbx:      0.00e+00
Ft:       0.00e+00

                        --- MOSFET Transistors ---
Name:        m:q5:1      m:q6:1      m:q3:1      m:q4:1      m:q7:1
Model:        q5:mm     q6:mn0124     q3:mm     q4:mn0124     q7:mm
Id:         -1.11e-11    1.99e-11   -1.11e-11    1.99e-11   -5.42e-01
Vgs:        -4.15e-02    0.00e+00   -4.15e-02    0.00e+00   -9.91e+00
Vds:        -5.54e+00    9.96e+00   -5.54e+00    9.96e+00   -1.44e-02
Vbs:         0.00e+00    0.00e+00    0.00e+00    0.00e+00    0.00e+00
Vth:        -8.68e-01    1.55e+00   -8.68e-01    1.55e+00   -8.68e-01
Vdsat:      -0.00e+00    0.00e+00   -0.00e+00    0.00e+00   -9.04e+00
Gm:          0.00e+00    0.00e+00    0.00e+00    0.00e+00    6.00e-02
Gds:         0.00e+00    0.00e+00    0.00e+00    0.00e+00    3.76e+01
Gmb:         0.00e+00    0.00e+00    0.00e+00    0.00e+00    0.00e+00
Cbd:         0.00e+00    1.09e-11    0.00e+00    1.09e-11    0.00e+00
Cbs:         0.00e+00    0.00e+00    0.00e+00    0.00e+00    0.00e+00
Cgsov:       1.38e-10    6.00e-15    1.38e-10    6.00e-15    1.38e-10
Cgdov:       1.16e-11    2.00e-16    1.16e-11    2.00e-16    1.16e-11
Cgbov:       0.00e+00    0.00e+00    0.00e+00    0.00e+00    0.00e+00
Cgs:         0.00e+00    0.00e+00    0.00e+00    0.00e+00    0.00e+00
Cgd:         0.00e+00    0.00e+00    0.00e+00    0.00e+00    0.00e+00
Cgb:         0.00e+00    0.00e+00    0.00e+00    0.00e+00    0.00e+00

Name:        m:q8:1      m:dut:1     m:q9:1      m:q1:1         mu9
Model:      q8:mn0124    dut:mm      q9:mint     q1:mint   tn2501__def__1
Id:          1.00e-04   -5.42e-01    9.09e-08   -3.46e-08     5.63e-08
Vgs:         5.00e+00   -3.71e+00   -2.81e-03   -2.81e-03     5.00e+00
Vds:         1.10e-03   -2.63e+00    8.13e-03   -3.20e-03     8.20e-08
Vbs:         0.00e+00    0.00e+00    0.00e+00    0.00e+00     0.00e+00
Vth:         1.55e+00   -2.47e+00   -1.34e+00   -1.34e+00     6.50e-01
Vdsat:       3.45e+00   -1.23e+00   -1.38e-01   -1.38e-01     3.99e+00
Gm:          2.90e-05    8.78e-01    5.98e-07    2.28e-07     1.28e-08
Gds:         3.71e+00    2.50e-18    1.08e-05    1.07e-05     5.32e+00
Gmb:         0.00e+00    0.00e+00    0.00e+00    0.00e+00     1.59e-09
Cbd:         3.60e-11    0.00e+00    0.00e+00    0.00e+00     0.00e+00
Cbs:         0.00e+00    0.00e+00    0.00e+00    0.00e+00     0.00e+00
Cgsov:       6.00e-15    2.02e-11    0.00e+00    0.00e+00     1.48e-10
Cgdov:       2.00e-16    3.63e-12    0.00e+00    0.00e+00     1.87e-11
Cgbov:       0.00e+00    0.00e+00    0.00e+00    0.00e+00     0.00e+00
Cgs:         0.00e+00    0.00e+00    1.69e-12    1.74e-12     2.81e-11
Cgd:         0.00e+00    0.00e+00    1.76e-12    1.71e-12     2.81e-11
Cgb:         0.00e+00    0.00e+00    0.00e+00    0.00e+00     0.00e+00

Name:           mu14        m:q13:1     m:q10:1
Model:     tn2501__def__1  q13:mint    q10:mint
Id:           3.44e-12      6.06e-08   -6.06e-08
Vgs:          0.00e+00     -1.75e-07   -1.68e-07
Vds:          5.38e-03      5.56e-03   -5.77e-03
Vbs:          0.00e+00      0.00e+00    0.00e+00
Vth:          6.50e-01     -1.34e+00   -1.34e+00
Vdsat:        3.32e-02     -1.38e-01   -1.38e-01
Gm:           9.46e-11      3.99e-07    3.99e-07
Gds:          5.81e-10      1.06e-05    1.02e-05
Gmb:          2.05e-11      0.00e+00    0.00e+00
Cbd:          0.00e+00      0.00e+00    0.00e+00
Cbs:          0.00e+00      0.00e+00    0.00e+00
Cgsov:        1.48e-10      0.00e+00    0.00e+00
Cgdov:        1.87e-11      0.00e+00    0.00e+00
Cgbov:        0.00e+00      0.00e+00    0.00e+00
Cgs:          0.00e+00      1.70e-12    1.75e-12
Cgd:          0.00e+00      1.75e-12    1.70e-12
Cgb:          5.61e-11      0.00e+00    0.00e+00



Date: Tue Mar 07 17:11:25 2023
Total elapsed time: 0.170 seconds.

tnom = 27
temp = 27
method = trap
totiter = 184
traniter = 0
tranpoints = 0
accept = 0
rejected = 0
matrix size = 562
fillins = 1314
solver = Normal

