Circuit: ** ISIM circuit **

Direct Newton iteration for .op point skipped.
Gmin stepping method for .op point skipped.
Starting source stepping with srcstepmethod=0
Source Step = 3.0303%
Source Step = 33.3333%
vernier = 0.25
Source Step = 30.3208%
Source Step = 30.3504%
Source Step = 30.38%
Source Step = 30.4096%
Source Step = 30.4392%
vernier = 0.00146484
Source Step = 30.4747%
Source Step = 30.5191%
Source Step = 30.5634%
Source Step = 30.6078%
Source Step = 30.6522%
vernier = 0.00219727
Source Step = 30.7033%
Source Step = 30.7699%
Source Step = 30.8364%
Source Step = 30.903%
Source Step = 30.9696%
vernier = 0.0032959
Source Step = 31.0429%
Source Step = 31.1427%
Source Step = 31.2426%
Source Step = 31.3425%
Source Step = 31.4424%
vernier = 0.00494385
Source Step = 31.5472%
Source Step = 31.697%
Source Step = 31.8468%
Source Step = 31.9967%
Source Step = 32.1465%
Source Step = 32.2963%
vernier = 0.00741577
Source Step = 32.521%
Source Step = 32.7457%
Source Step = 32.9705%
Source Step = 33.1952%
Source Step = 33.4199%
vernier = 0.0111237
Source Step = 33.7457%
Source Step = 34.0828%
Source Step = 34.4199%
Source Step = 34.757%
Source Step = 35.0941%
vernier = 0.0166855
Source Step = 35.566%
Source Step = 36.0716%
Source Step = 36.5772%
Source Step = 37.0828%
Source Step = 37.5885%
vernier = 0.0250282
Source Step = 38.271%
Source Step = 39.0295%
Source Step = 39.7879%
Source Step = 40.5463%
Source Step = 41.3048%
vernier = 0.0375423
Source Step = 42.2907%
Source Step = 43.4284%
Source Step = 44.566%
Source Step = 45.7037%
Source Step = 46.8413%
vernier = 0.0563135
Source Step = 48.2634%
Source Step = 49.9698%
Source Step = 51.6763%
Source Step = 53.3828%
Source Step = 55.0893%
vernier = 0.0844703
Source Step = 57.137%
Source Step = 59.6967%
Source Step = 62.2564%
Source Step = 64.8161%
Source Step = 67.3758%
vernier = 0.126705
Source Step = 70.3195%
Source Step = 74.1591%
Source Step = 77.9986%
Source Step = 81.8382%
Source Step = 85.6777%
vernier = 0.190058
Source Step = 89.9012%
Source Step = 92.4929%
Source Step = 93.9328%
Source Step = 95.3726%
Source Step = 96.8124%
Source Step = 98.2523%
vernier = 0.0712718
Source Step = 100%
Source stepping succeeded in finding the operating point.

Semiconductor Device Operating Points:
                        --- Diodes ---
Name:    d:q9:bd     d:q1:bd    d:q13:bd    d:q10:bd     d:u2:n2
Model:   q9:dbd      q1:dbd      q13:dbd     q10:dbd      u2:dy
Id:      0.00e+00   -4.44e-10    0.00e+00    0.00e+00    1.94e-06
Vd:      5.44e-02   -5.47e-02    5.83e-02   -1.45e+00    6.00e-01
Req:     4.40e+11    9.82e+11    4.03e+11    1.00e+12    1.33e+04
CAP:     1.36e-11    1.27e-11    1.37e-11    8.35e-12    0.00e+00

Name:    d:u2:n1     d:u2:q2     d:u2:q1     d:u2:p      d:u2:ln
Model:    u2:dy       u2:dx       u2:dx       u2:dx       u2:dx
Id:      1.94e-06   -7.63e-13    5.10e-03   -1.70e-11   -1.51e-11
Vd:      6.00e-01   -7.63e-01    7.63e-01   -1.70e+01   -1.51e+01
Req:     1.33e+04    1.00e+12    5.07e+00    1.00e+12    1.00e+12
CAP:     0.00e+00    0.00e+00    0.00e+00    0.00e+00    0.00e+00

Name:    d:u2:lp     d:u2:e      d:u2:c     d:u12:n2    d:u12:n1
Model:    u2:dx       u2:dx       u2:dx      u12:dy      u12:dy
Id:     -4.90e-12   -1.52e-11    3.50e-13    1.94e-06    1.94e-06
Vd:     -4.90e+00   -1.52e+01    1.44e-01    6.00e-01    6.00e-01
Req:     1.00e+12    1.00e+12    1.11e+11    1.33e+04    1.33e+04
CAP:     0.00e+00    0.00e+00    0.00e+00    0.00e+00    0.00e+00

Name:   d:u12:q2    d:u12:q1     d:u12:p    d:u12:ln    d:u12:lp
Model:   u12:dx      u12:dx      u12:dx      u12:dx      u12:dx
Id:      9.22e-05   -6.60e-13   -1.70e-11   -9.91e-12   -1.01e-11
Vd:      6.59e-01   -6.59e-01   -1.70e+01   -9.91e+00   -1.01e+01
Req:     2.81e+02    1.00e+12    1.00e+12    1.00e+12    1.00e+12
CAP:     0.00e+00    0.00e+00    0.00e+00    0.00e+00    0.00e+00

Name:    d:u12:e     d:u12:c     d:u5:n2     d:u5:n1     d:u5:q2
Model:   u12:dx      u12:dx       u5:dy       u5:dy       u5:dx
Id:     -6.12e-12   -8.93e-12    1.94e-06    1.94e-06   -6.56e-13
Vd:     -6.12e+00   -8.93e+00    6.00e-01    6.00e-01   -6.55e-01
Req:     1.00e+12    1.00e+12    1.33e+04    1.33e+04    1.00e+12
CAP:     0.00e+00    0.00e+00    0.00e+00    0.00e+00    0.00e+00

Name:    d:u5:q1     d:u5:p      d:u5:ln     d:u5:lp     d:u5:e
Model:    u5:dx       u5:dx       u5:dx       u5:dx       u5:dx
Id:      7.89e-05   -1.70e-11   -1.01e-11   -9.92e-12   -8.30e-12
Vd:      6.55e-01   -1.70e+01   -1.01e+01   -9.92e+00   -8.30e+00
Req:     3.28e+02    1.00e+12    1.00e+12    1.00e+12    1.00e+12
CAP:     0.00e+00    0.00e+00    0.00e+00    0.00e+00    0.00e+00

Name:    d:u5:c      d:u4:n2     d:u4:n1     d:u4:q2     d:u4:q1
Model:    u5:dx       u4:dy       u4:dy       u4:dx       u4:dx
Id:     -6.75e-12    1.94e-06    1.94e-06   -6.56e-13    7.89e-05
Vd:     -6.75e+00    6.00e-01    6.00e-01   -6.55e-01    6.55e-01
Req:     1.00e+12    1.33e+04    1.33e+04    1.00e+12    3.28e+02
CAP:     0.00e+00    0.00e+00    0.00e+00    0.00e+00    0.00e+00

Name:    d:u4:p      d:u4:ln     d:u4:lp     d:u4:e      d:u4:c
Model:    u4:dx       u4:dx       u4:dx       u4:dx       u4:dx
Id:     -1.70e-11   -1.01e-11   -9.92e-12   -8.30e-12   -6.75e-12
Vd:     -1.70e+01   -1.01e+01   -9.92e+00   -8.30e+00   -6.75e+00
Req:     1.00e+12    1.00e+12    1.00e+12    1.00e+12    1.00e+12
CAP:     0.00e+00    0.00e+00    0.00e+00    0.00e+00    0.00e+00

Name:    d:u3:n2     d:u3:n1     d:u3:q2     d:u3:q1     d:u3:p
Model:    u3:dy       u3:dy       u3:dx       u3:dx       u3:dx
Id:      1.94e-06    1.94e-06   -6.44e-13    5.10e-05   -1.70e-11
Vd:      6.00e-01    6.00e-01   -6.43e-01    6.43e-01   -1.70e+01
Req:     1.33e+04    1.33e+04    1.00e+12    5.07e+02    1.00e+12
CAP:     0.00e+00    0.00e+00    0.00e+00    0.00e+00    0.00e+00

Name:    d:u3:ln     d:u3:lp     d:u3:e      d:u3:c      d:u8:n2
Model:    u3:dx       u3:dx       u3:dx       u3:dx       u8:dy
Id:     -1.01e-11   -9.95e-12   -6.90e-12   -8.15e-12    1.94e-06
Vd:     -1.01e+01   -9.95e+00   -6.90e+00   -8.15e+00    6.00e-01
Req:     1.00e+12    1.00e+12    1.00e+12    1.00e+12    1.33e+04
CAP:     0.00e+00    0.00e+00    0.00e+00    0.00e+00    0.00e+00

Name:    d:u8:n1     d:u8:q2     d:u8:q1     d:u8:p      d:u8:ln
Model:    u8:dy       u8:dx       u8:dx       u8:dx       u8:dx
Id:      1.94e-06   -6.62e-13    9.98e-05   -1.70e-11   -1.01e-11
Vd:      6.00e-01   -6.61e-01    6.61e-01   -1.70e+01   -1.01e+01
Req:     1.33e+04    1.00e+12    2.59e+02    1.00e+12    1.00e+12
CAP:     0.00e+00    0.00e+00    0.00e+00    0.00e+00    0.00e+00

Name:    d:u8:lp     d:u8:e      d:u8:c      d:u7:n2     d:u7:n1
Model:    u8:dx       u8:dx       u8:dx       u7:dy       u7:dy
Id:     -9.90e-12   -9.35e-12   -5.71e-12    1.94e-06    1.94e-06
Vd:     -9.90e+00   -9.34e+00   -5.71e+00    6.00e-01    6.00e-01
Req:     1.00e+12    1.00e+12    1.00e+12    1.33e+04    1.33e+04
CAP:     0.00e+00    0.00e+00    0.00e+00    0.00e+00    0.00e+00

Name:    d:u7:q2     d:u7:q1     d:u7:p      d:u7:ln     d:u7:lp
Model:    u7:dx       u7:dx       u7:dx       u7:dx       u7:dx
Id:     -6.62e-13    9.98e-05   -1.70e-11   -1.01e-11   -9.90e-12
Vd:     -6.61e-01    6.61e-01   -1.70e+01   -1.01e+01   -9.90e+00
Req:     1.00e+12    2.59e+02    1.00e+12    1.00e+12    1.00e+12
CAP:     0.00e+00    0.00e+00    0.00e+00    0.00e+00    0.00e+00

Name:    d:u7:e      d:u7:c      d:u6:n2     d:u6:n1     d:u6:q2
Model:    u7:dx       u7:dx       u6:dy       u6:dy       u6:dx
Id:     -9.35e-12   -5.71e-12    1.94e-06    1.94e-06   -6.62e-13
Vd:     -9.34e+00   -5.71e+00    6.00e-01    6.00e-01   -6.61e-01
Req:     1.00e+12    1.00e+12    1.33e+04    1.33e+04    1.00e+12
CAP:     0.00e+00    0.00e+00    0.00e+00    0.00e+00    0.00e+00

Name:    d:u6:q1     d:u6:p      d:u6:ln     d:u6:lp     d:u6:e
Model:    u6:dx       u6:dx       u6:dx       u6:dx       u6:dx
Id:      9.98e-05   -1.70e-11   -1.01e-11   -9.90e-12   -9.35e-12
Vd:      6.61e-01   -1.70e+01   -1.01e+01   -9.90e+00   -9.34e+00
Req:     2.59e+02    1.00e+12    1.00e+12    1.00e+12    1.00e+12
CAP:     0.00e+00    0.00e+00    0.00e+00    0.00e+00    0.00e+00

Name:    d:u6:c      d:u1:n2     d:u1:n1     d:u1:q2     d:u1:q1
Model:    u6:dx       u1:dy       u1:dy       u1:dx       u1:dx
Id:     -5.71e-12    1.94e-06    1.94e-06   -6.79e-13    1.98e-04
Vd:     -5.71e+00    6.00e-01    6.00e-01   -6.78e-01    6.78e-01
Req:     1.00e+12    1.33e+04    1.33e+04    1.00e+12    1.31e+02
CAP:     0.00e+00    0.00e+00    0.00e+00    0.00e+00    0.00e+00

Name:    d:u1:p      d:u1:ln     d:u1:lp     d:u1:e      d:u1:c
Model:    u1:dx       u1:dx       u1:dx       u1:dx       u1:dx
Id:     -1.70e-11   -1.02e-11   -9.80e-12   -1.42e-11   -8.22e-13
Vd:     -1.70e+01   -1.02e+01   -9.80e+00   -1.42e+01   -8.21e-01
Req:     1.00e+12    1.00e+12    1.00e+12    1.00e+12    1.00e+12
CAP:     0.00e+00    0.00e+00    0.00e+00    0.00e+00    0.00e+00

Name:    d:q5:4      d:q5:3      d:q5:2      d:q5:1      d:q6:1
Model:   q5:md3      q5:md2      q5:md1       q5:md     q6:dn0124
Id:     -1.05e-10    0.00e+00   -4.95e-12   -9.47e-09   -1.30e-11
Vd:     -4.95e+00   -4.95e+00   -4.95e+00   -4.99e+00   -9.95e+00
Req:     1.00e+12    1.00e+12    1.00e+12    1.00e+12    1.00e+12
CAP:     0.00e+00    0.00e+00    8.06e-12    9.84e-12    0.00e+00

Name:    d:q3:4      d:q3:3      d:q3:2      d:q3:1      d:q4:1
Model:   q3:md3      q3:md2      q3:md1       q3:md     q4:dn0124
Id:     -1.05e-10    0.00e+00   -4.95e-12   -9.47e-09   -1.30e-11
Vd:     -4.95e+00   -4.95e+00   -4.95e+00   -4.99e+00   -9.95e+00
Req:     1.00e+12    1.00e+12    1.00e+12    1.00e+12    1.00e+12
CAP:     0.00e+00    0.00e+00    8.06e-12    9.84e-12    0.00e+00

Name:    d:q7:4      d:q7:3      d:q7:2      d:q7:1      d:q8:1
Model:   q7:md3      q7:md2      q7:md1       q7:md     q8:dn0124
Id:      9.63e+00    9.63e+00    2.62e-13   -8.89e-09   -1.25e-13
Vd:      2.62e-01    2.62e-01    2.62e-01   -1.08e-01   -1.09e-03
Req:     1.07e-03    1.07e-03    1.00e+12    6.69e+07    8.92e+09
CAP:     0.00e+00    0.00e+00    1.02e-10    2.15e-11    0.00e+00

                        --- Bipolar Transistors ---
Name:     q:u2:2      q:u2:1      q:u12:2     q:u12:1          qq2
Model:     u2:qx       u2:qx      u12:qx      u12:qx    qbd135__bjt_npn__1
Ib:      -4.96e-08   -4.97e-08   -5.03e-08   -5.03e-08       5.10e-03
Ic:      -2.98e-06   -2.98e-06   -3.02e-06   -3.02e-06       4.84e-01
Vbe:     -5.70e-01   -5.70e-01   -5.70e-01   -5.70e-01       8.57e-01
Vbc:      9.95e+00    9.95e+00    6.18e+00    6.18e+00      -1.16e+00
Vce:     -1.05e+01   -1.05e+01   -6.75e+00   -6.75e+00       2.01e+00
BetaDC:   6.00e+01    6.00e+01    6.00e+01    6.00e+01       9.48e+01
Gm:       1.15e-04    1.15e-04    1.17e-04    1.17e-04       1.53e+01
Rpi:      5.21e+05    5.21e+05    5.14e+05    5.15e+05       5.02e+00
Rx:       0.00e+00    0.00e+00    0.00e+00    0.00e+00       5.00e-01
Ro:       0.00e+00    0.00e+00    0.00e+00    0.00e+00       4.57e+02
Cbe:      0.00e+00    0.00e+00    0.00e+00    0.00e+00       2.72e-08
Cbc:      0.00e+00    0.00e+00    0.00e+00    0.00e+00       1.89e-11
Cjs:      0.00e+00    0.00e+00    0.00e+00    0.00e+00       0.00e+00
BetaAC:   6.00e+01    6.00e+01    6.00e+01    6.00e+01       7.69e+01
Cbx:      0.00e+00    0.00e+00    0.00e+00    0.00e+00       0.00e+00
Ft:       0.00e+00    0.00e+00    0.00e+00    0.00e+00       8.96e+07

Name:          qq11                   qq12              q:u5:2      q:u5:1      q:u4:2
Model:  qbd135__bjt_npn__1 qbc51-10pa/nxp__bjt_pnp__1    u5:qx       u5:qx       u4:qx
Ib:         -1.10e-11              -9.22e-05           -4.98e-08   -4.98e-08   -4.98e-08
Ic:          1.03e-11              -1.37e-02           -2.99e-06   -2.99e-06   -2.99e-06
Vbe:        -6.70e-01              -6.70e-01           -5.70e-01   -5.70e-01   -5.70e-01
Vbc:        -1.02e+01               6.77e+00            8.90e+00    8.90e+00    8.90e+00
Vce:         9.56e+00              -7.44e+00           -9.47e+00   -9.47e+00   -9.47e+00
BetaDC:     -9.36e-01               1.48e+02            6.00e+01    6.00e+01    6.00e+01
Gm:          8.41e-24               5.27e-01            1.16e-04    1.16e-04    1.16e-04
Rpi:         1.00e+12               2.79e+02            5.19e+05    5.19e+05    5.19e+05
Rx:          5.00e-01               2.00e+00            0.00e+00    0.00e+00    0.00e+00
Ro:          1.09e+27               7.92e+03            0.00e+00    0.00e+00    0.00e+00
Cbe:         9.91e-11               7.51e-10            0.00e+00    0.00e+00    0.00e+00
Cbc:         8.37e-12               7.73e-12            0.00e+00    0.00e+00    0.00e+00
Cjs:         0.00e+00               0.00e+00            0.00e+00    0.00e+00    0.00e+00
BetaAC:      8.41e-12               1.47e+02            6.00e+01    6.00e+01    6.00e+01
Cbx:         0.00e+00               9.83e-12            0.00e+00    0.00e+00    0.00e+00
Ft:          1.48e-03               1.09e+08            0.00e+00    0.00e+00    0.00e+00

Name:     q:u4:1      q:u3:2      q:u3:1      q:u8:2      q:u8:1
Model:     u4:qx       u3:qx       u3:qx       u8:qx       u8:qx
Ib:      -4.98e-08   -5.01e-08   -5.00e-08   -4.96e-08   -4.97e-08
Ic:      -2.99e-06   -3.00e-06   -3.00e-06   -2.98e-06   -2.98e-06
Vbe:     -5.70e-01   -5.70e-01   -5.70e-01   -5.70e-01   -5.70e-01
Vbc:      8.90e+00    7.51e+00    7.51e+00    9.95e+00    9.95e+00
Vce:     -9.47e+00   -8.08e+00   -8.08e+00   -1.05e+01   -1.05e+01
BetaDC:   6.00e+01    6.00e+01    6.00e+01    6.00e+01    6.00e+01
Gm:       1.16e-04    1.16e-04    1.16e-04    1.15e-04    1.15e-04
Rpi:      5.19e+05    5.17e+05    5.17e+05    5.21e+05    5.21e+05
Rx:       0.00e+00    0.00e+00    0.00e+00    0.00e+00    0.00e+00
Ro:       0.00e+00    0.00e+00    0.00e+00    0.00e+00    0.00e+00
Cbe:      0.00e+00    0.00e+00    0.00e+00    0.00e+00    0.00e+00
Cbc:      0.00e+00    0.00e+00    0.00e+00    0.00e+00    0.00e+00
Cjs:      0.00e+00    0.00e+00    0.00e+00    0.00e+00    0.00e+00
BetaAC:   6.00e+01    6.00e+01    6.00e+01    6.00e+01    6.00e+01
Cbx:      0.00e+00    0.00e+00    0.00e+00    0.00e+00    0.00e+00
Ft:       0.00e+00    0.00e+00    0.00e+00    0.00e+00    0.00e+00

Name:     q:u7:2      q:u7:1      q:u6:2      q:u6:1      q:u1:2
Model:     u7:qx       u7:qx       u6:qx       u6:qx       u1:qx
Ib:      -4.96e-08   -4.97e-08   -4.96e-08   -4.97e-08   -4.88e-08
Ic:      -2.98e-06   -2.98e-06   -2.98e-06   -2.98e-06   -2.93e-06
Vbe:     -5.70e-01   -5.70e-01   -5.70e-01   -5.70e-01   -5.70e-01
Vbc:      9.95e+00    9.95e+00    9.95e+00    9.95e+00    1.48e+01
Vce:     -1.05e+01   -1.05e+01   -1.05e+01   -1.05e+01   -1.54e+01
BetaDC:   6.00e+01    6.00e+01    6.00e+01    6.00e+01    6.00e+01
Gm:       1.15e-04    1.15e-04    1.15e-04    1.15e-04    1.13e-04
Rpi:      5.21e+05    5.21e+05    5.21e+05    5.21e+05    5.30e+05
Rx:       0.00e+00    0.00e+00    0.00e+00    0.00e+00    0.00e+00
Ro:       0.00e+00    0.00e+00    0.00e+00    0.00e+00    0.00e+00
Cbe:      0.00e+00    0.00e+00    0.00e+00    0.00e+00    0.00e+00
Cbc:      0.00e+00    0.00e+00    0.00e+00    0.00e+00    0.00e+00
Cjs:      0.00e+00    0.00e+00    0.00e+00    0.00e+00    0.00e+00
BetaAC:   6.00e+01    6.00e+01    6.00e+01    6.00e+01    6.00e+01
Cbx:      0.00e+00    0.00e+00    0.00e+00    0.00e+00    0.00e+00
Ft:       0.00e+00    0.00e+00    0.00e+00    0.00e+00    0.00e+00

Name:     q:u1:1           qdut
Model:     u1:qx    2n3906__bjt_pnp__1
Ib:      -4.89e-08      -1.39e-02
Ic:      -2.94e-06      -4.74e-01
Vbe:     -5.70e-01      -1.05e+00
Vbc:      1.48e+01       3.95e+00
Vce:     -1.54e+01      -4.99e+00
BetaDC:   6.00e+01       3.40e+01
Gm:       1.14e-04       9.96e+00
Rpi:      5.29e+05       1.85e+00
Rx:       0.00e+00       1.00e+01
Ro:       0.00e+00       4.55e+01
Cbe:      0.00e+00       9.08e-09
Cbc:      0.00e+00       3.90e-12
Cjs:      0.00e+00       0.00e+00
BetaAC:   6.00e+01       1.85e+01
Cbx:      0.00e+00       0.00e+00
Ft:       0.00e+00       1.74e+08

                        --- MOSFET Transistors ---
Name:        m:q5:1      m:q6:1      m:q3:1      m:q4:1      m:q7:1
Model:        q5:mm     q6:mn0124     q3:mm     q4:mn0124     q7:mm
Id:         -9.99e-12    1.99e-11   -9.99e-12    1.99e-11   -4.88e-01
Vgs:        -4.14e-02    0.00e+00   -4.14e-02    0.00e+00   -9.91e+00
Vds:        -4.99e+00    9.95e+00   -4.99e+00    9.95e+00   -1.30e-02
Vbs:         0.00e+00    0.00e+00    0.00e+00    0.00e+00    0.00e+00
Vth:        -8.68e-01    1.55e+00   -8.68e-01    1.55e+00   -8.68e-01
Vdsat:      -0.00e+00    0.00e+00   -0.00e+00    0.00e+00   -9.04e+00
Gm:          0.00e+00    0.00e+00    0.00e+00    0.00e+00    5.41e-02
Gds:         0.00e+00    0.00e+00    0.00e+00    0.00e+00    3.75e+01
Gmb:         0.00e+00    0.00e+00    0.00e+00    0.00e+00    0.00e+00
Cbd:         0.00e+00    1.09e-11    0.00e+00    1.09e-11    0.00e+00
Cbs:         0.00e+00    0.00e+00    0.00e+00    0.00e+00    0.00e+00
Cgsov:       1.38e-10    6.00e-15    1.38e-10    6.00e-15    1.38e-10
Cgdov:       1.16e-11    2.00e-16    1.16e-11    2.00e-16    1.16e-11
Cgbov:       0.00e+00    0.00e+00    0.00e+00    0.00e+00    0.00e+00
Cgs:         0.00e+00    0.00e+00    0.00e+00    0.00e+00    0.00e+00
Cgd:         0.00e+00    0.00e+00    0.00e+00    0.00e+00    0.00e+00
Cgb:         0.00e+00    0.00e+00    0.00e+00    0.00e+00    0.00e+00

Name:        m:q8:1      m:q9:1      m:q1:1         mu9            mu14
Model:      q8:mn0124    q9:mint     q1:mint   tn2501__def__1 tn2501__def__1
Id:          9.99e-05    1.39e-02   -1.39e-02     5.00e-05       2.70e-11
Vgs:         5.00e+00   -2.50e+00   -2.50e+00     5.00e+00       0.00e+00
Vds:         1.09e-03    2.31e-02   -2.35e-02     7.30e-05       3.89e+00
Vbs:         0.00e+00    0.00e+00    0.00e+00     0.00e+00       0.00e+00
Vth:         1.55e+00   -1.34e+00   -1.34e+00     6.50e-01       6.32e-01
Vdsat:       3.45e+00   -5.95e-01   -5.91e-01     3.99e+00       3.32e-02
Gm:          2.90e-05    1.05e-02    1.07e-02     1.14e-05       5.32e-10
Gds:         3.71e+00    5.81e-01    5.70e-01     5.32e+00       2.55e-12
Gmb:         0.00e+00   -0.00e+00   -0.00e+00     1.42e-06       1.15e-10
Cbd:         3.60e-11    0.00e+00    0.00e+00     0.00e+00       0.00e+00
Cbs:         0.00e+00    0.00e+00    0.00e+00     0.00e+00       0.00e+00
Cgsov:       6.00e-15    0.00e+00    0.00e+00     1.48e-10       1.48e-10
Cgdov:       2.00e-16    0.00e+00    0.00e+00     1.87e-11       1.87e-11
Cgbov:       0.00e+00    0.00e+00    0.00e+00     0.00e+00       0.00e+00
Cgs:         0.00e+00    1.70e-12    1.75e-12     2.81e-11       0.00e+00
Cgd:         0.00e+00    1.75e-12    1.70e-12     2.81e-11       0.00e+00
Cgb:         0.00e+00    0.00e+00    0.00e+00     0.00e+00       5.61e-11

Name:        m:q13:1     m:q10:1
Model:      q13:mint    q10:mint
Id:          6.97e-07   -6.97e-07
Vgs:        -1.46e-06   -1.38e-06
Vds:         5.83e-02   -1.45e+00
Vbs:         0.00e+00    0.00e+00
Vth:        -1.34e+00   -1.34e+00
Vdsat:      -1.38e-01   -1.38e-01
Gm:          4.59e-06    4.59e-06
Gds:         8.34e-06    1.19e-07
Gmb:         0.00e+00    0.00e+00
Cbd:         0.00e+00    0.00e+00
Cbs:         0.00e+00    0.00e+00
Cgsov:       0.00e+00    0.00e+00
Cgdov:       0.00e+00    0.00e+00
Cgbov:       0.00e+00    0.00e+00
Cgs:         1.38e-12    2.30e-12
Cgd:         1.99e-12    0.00e+00
Cgb:         0.00e+00    0.00e+00



Date: Sun Mar 12 22:50:35 2023
Total elapsed time: 3.474 seconds.

tnom = 27
temp = 27
method = trap
totiter = 3135
traniter = 0
tranpoints = 0
accept = 0
rejected = 0
matrix size = 551
fillins = 1905
solver = Normal
Thread vector: 34.2/24.2[4] 0.0/0.0[0] 13.6/8.6[4] 3.7/4.7[1]  2592/500
Matrix Compiler1: 176.97 KB object code size
Matrix Compiler2: 76.97 KB object code size  15.0/12.8/[6.6]

