Circuit: ** ISIM circuit **

Direct Newton iteration for .op point skipped.
Gmin stepping method for .op point skipped.
Starting source stepping with srcstepmethod=0
Source Step = 3.0303%
Source Step = 33.3333%
Source Step = 63.6364%
Source Step = 93.9394%
Source stepping succeeded in finding the operating point.

Semiconductor Device Operating Points:
                        --- Diodes ---
Name:    d:q9:bd     d:q1:bd    d:q13:bd    d:q10:bd     d:u2:n2
Model:   q9:dbd      q1:dbd      q13:dbd     q10:dbd      u2:dy
Id:     -2.22e-10   -2.22e-10    0.00e+00    0.00e+00    1.94e-06
Vd:      4.74e-06    5.15e-04   -2.20e-04    2.20e-04    6.00e-01
Req:     8.66e+11    8.63e+11    8.67e+11    8.65e+11    1.33e+04
CAP:     1.31e-11    1.31e-11    1.31e-11    1.31e-11    0.00e+00

Name:    d:u2:n1     d:u2:q2     d:u2:q1     d:u2:p      d:u2:ln
Model:    u2:dy       u2:dx       u2:dx       u2:dx       u2:dx
Id:      1.94e-06   -7.60e-13    4.45e-03   -1.70e-11   -1.45e-11
Vd:      6.00e-01   -7.59e-01    7.59e-01   -1.70e+01   -1.45e+01
Req:     1.33e+04    1.00e+12    5.81e+00    1.00e+12    1.00e+12
CAP:     0.00e+00    0.00e+00    0.00e+00    0.00e+00    0.00e+00

Name:    d:u2:lp     d:u2:e      d:u2:c     d:u12:n2    d:u12:n1
Model:    u2:dx       u2:dx       u2:dx      u12:dy      u12:dy
Id:     -5.55e-12   -1.50e-11   -8.91e-14    1.94e-06    1.94e-06
Vd:     -5.55e+00   -1.50e+01   -8.83e-02    6.00e-01    6.00e-01
Req:     1.00e+12    1.00e+12    9.99e+11    1.33e+04    1.33e+04
CAP:     0.00e+00    0.00e+00    0.00e+00    0.00e+00    0.00e+00

Name:   d:u12:q2    d:u12:q1     d:u12:p    d:u12:ln    d:u12:lp
Model:   u12:dx      u12:dx      u12:dx      u12:dx      u12:dx
Id:     -5.34e-13    7.06e-07   -1.70e-11   -1.00e-11   -1.00e-11
Vd:     -5.33e-01    5.33e-01   -1.70e+01   -1.00e+01   -1.00e+01
Req:     1.00e+12    3.66e+04    1.00e+12    1.00e+12    1.00e+12
CAP:     0.00e+00    0.00e+00    0.00e+00    0.00e+00    0.00e+00

Name:    d:u12:e     d:u12:c     d:u5:n2     d:u5:n1     d:u5:q2
Model:   u12:dx      u12:dx       u5:dy       u5:dy       u5:dx
Id:     -6.20e-12   -8.85e-12    1.94e-06    1.94e-06   -6.27e-13
Vd:     -6.20e+00   -8.85e+00    6.00e-01    6.00e-01   -6.26e-01
Req:     1.00e+12    1.00e+12    1.33e+04    1.33e+04    1.00e+12
CAP:     0.00e+00    0.00e+00    0.00e+00    0.00e+00    0.00e+00

Name:    d:u5:q1     d:u5:p      d:u5:ln     d:u5:lp     d:u5:e
Model:    u5:dx       u5:dx       u5:dx       u5:dx       u5:dx
Id:      2.60e-05   -1.70e-11   -1.00e-11   -9.97e-12   -5.65e-12
Vd:      6.26e-01   -1.70e+01   -1.00e+01   -9.97e+00   -5.65e+00
Req:     9.96e+02    1.00e+12    1.00e+12    1.00e+12    1.00e+12
CAP:     0.00e+00    0.00e+00    0.00e+00    0.00e+00    0.00e+00

Name:    d:u5:c      d:u4:n2     d:u4:n1     d:u4:q2     d:u4:q1
Model:    u5:dx       u4:dy       u4:dy       u4:dx       u4:dx
Id:     -9.40e-12    1.94e-06    1.94e-06   -6.27e-13    2.60e-05
Vd:     -9.40e+00    6.00e-01    6.00e-01   -6.26e-01    6.26e-01
Req:     1.00e+12    1.33e+04    1.33e+04    1.00e+12    9.96e+02
CAP:     0.00e+00    0.00e+00    0.00e+00    0.00e+00    0.00e+00

Name:    d:u4:p      d:u4:ln     d:u4:lp     d:u4:e      d:u4:c
Model:    u4:dx       u4:dx       u4:dx       u4:dx       u4:dx
Id:     -1.70e-11   -1.00e-11   -9.97e-12   -5.65e-12   -9.40e-12
Vd:     -1.70e+01   -1.00e+01   -9.97e+00   -5.65e+00   -9.40e+00
Req:     1.00e+12    1.00e+12    1.00e+12    1.00e+12    1.00e+12
CAP:     0.00e+00    0.00e+00    0.00e+00    0.00e+00    0.00e+00

Name:    d:u3:n2     d:u3:n1     d:u3:q2     d:u3:q1     d:u3:p
Model:    u3:dy       u3:dy       u3:dx       u3:dx       u3:dx
Id:      1.94e-06    1.94e-06   -6.27e-13    2.60e-05   -1.70e-11
Vd:      6.00e-01    6.00e-01   -6.26e-01    6.26e-01   -1.70e+01
Req:     1.33e+04    1.33e+04    1.00e+12    9.96e+02    1.00e+12
CAP:     0.00e+00    0.00e+00    0.00e+00    0.00e+00    0.00e+00

Name:    d:u3:ln     d:u3:lp     d:u3:e      d:u3:c      d:u8:n2
Model:    u3:dx       u3:dx       u3:dx       u3:dx       u8:dy
Id:     -1.00e-11   -9.97e-12   -5.65e-12   -9.40e-12    1.94e-06
Vd:     -1.00e+01   -9.97e+00   -5.65e+00   -9.40e+00    6.00e-01
Req:     1.00e+12    1.00e+12    1.00e+12    1.00e+12    1.33e+04
CAP:     0.00e+00    0.00e+00    0.00e+00    0.00e+00    0.00e+00

Name:    d:u8:n1     d:u8:q2     d:u8:q1     d:u8:p      d:u8:ln
Model:    u8:dy       u8:dx       u8:dx       u8:dx       u8:dx
Id:      1.94e-06   -6.63e-13    1.06e-04   -1.70e-11   -1.01e-11
Vd:      6.00e-01   -6.62e-01    6.62e-01   -1.70e+01   -1.01e+01
Req:     1.33e+04    1.00e+12    2.44e+02    1.00e+12    1.00e+12
CAP:     0.00e+00    0.00e+00    0.00e+00    0.00e+00    0.00e+00

Name:    d:u8:lp     d:u8:e      d:u8:c      d:u7:n2     d:u7:n1
Model:    u8:dx       u8:dx       u8:dx       u7:dy       u7:dy
Id:     -9.89e-12   -9.65e-12   -5.40e-12    1.94e-06    1.94e-06
Vd:     -9.89e+00   -9.65e+00   -5.40e+00    6.00e-01    6.00e-01
Req:     1.00e+12    1.00e+12    1.00e+12    1.33e+04    1.33e+04
CAP:     0.00e+00    0.00e+00    0.00e+00    0.00e+00    0.00e+00

Name:    d:u7:q2     d:u7:q1     d:u7:p      d:u7:ln     d:u7:lp
Model:    u7:dx       u7:dx       u7:dx       u7:dx       u7:dx
Id:     -6.63e-13    1.06e-04   -1.70e-11   -1.01e-11   -9.89e-12
Vd:     -6.62e-01    6.62e-01   -1.70e+01   -1.01e+01   -9.89e+00
Req:     1.00e+12    2.44e+02    1.00e+12    1.00e+12    1.00e+12
CAP:     0.00e+00    0.00e+00    0.00e+00    0.00e+00    0.00e+00

Name:    d:u7:e      d:u7:c      d:u6:n2     d:u6:n1     d:u6:q2
Model:    u7:dx       u7:dx       u6:dy       u6:dy       u6:dx
Id:     -9.65e-12   -5.40e-12    1.94e-06    1.94e-06   -6.63e-13
Vd:     -9.65e+00   -5.40e+00    6.00e-01    6.00e-01   -6.62e-01
Req:     1.00e+12    1.00e+12    1.33e+04    1.33e+04    1.00e+12
CAP:     0.00e+00    0.00e+00    0.00e+00    0.00e+00    0.00e+00

Name:    d:u6:q1     d:u6:p      d:u6:ln     d:u6:lp     d:u6:e
Model:    u6:dx       u6:dx       u6:dx       u6:dx       u6:dx
Id:      1.06e-04   -1.70e-11   -1.01e-11   -9.89e-12   -9.65e-12
Vd:      6.62e-01   -1.70e+01   -1.01e+01   -9.89e+00   -9.65e+00
Req:     2.44e+02    1.00e+12    1.00e+12    1.00e+12    1.00e+12
CAP:     0.00e+00    0.00e+00    0.00e+00    0.00e+00    0.00e+00

Name:    d:u6:c      d:u1:n2     d:u1:n1     d:u1:q2     d:u1:q1
Model:    u6:dx       u1:dy       u1:dy       u1:dx       u1:dx
Id:     -5.40e-12    1.94e-06    1.94e-06   -6.79e-13    1.93e-04
Vd:     -5.40e+00    6.00e-01    6.00e-01   -6.78e-01    6.78e-01
Req:     1.00e+12    1.33e+04    1.33e+04    1.00e+12    1.34e+02
CAP:     0.00e+00    0.00e+00    0.00e+00    0.00e+00    0.00e+00

Name:    d:u1:p      d:u1:ln     d:u1:lp     d:u1:e      d:u1:c
Model:    u1:dx       u1:dx       u1:dx       u1:dx       u1:dx
Id:     -1.70e-11   -1.02e-11   -9.81e-12   -1.40e-11   -1.03e-12
Vd:     -1.70e+01   -1.02e+01   -9.81e+00   -1.40e+01   -1.03e+00
Req:     1.00e+12    1.00e+12    1.00e+12    1.00e+12    1.00e+12
CAP:     0.00e+00    0.00e+00    0.00e+00    0.00e+00    0.00e+00

Name:    d:q5:4      d:q5:3      d:q5:2      d:q5:1      d:q6:1
Model:   q5:md3      q5:md2      q5:md1       q5:md     q6:dn0124
Id:     -1.04e-10    0.00e+00   -4.43e-12   -9.47e-09   -1.28e-11
Vd:     -4.43e+00   -4.43e+00   -4.43e+00   -4.47e+00   -9.73e+00
Req:     1.00e+12    1.00e+12    1.00e+12    1.00e+12    1.00e+12
CAP:     0.00e+00    0.00e+00    8.83e-12    1.04e-11    0.00e+00

Name:    d:q3:4      d:q3:3      d:q3:2      d:q3:1      d:q4:1
Model:   q3:md3      q3:md2      q3:md1       q3:md     q4:dn0124
Id:     -1.04e-10    0.00e+00   -4.43e-12   -9.47e-09   -1.28e-11
Vd:     -4.43e+00   -4.43e+00   -4.43e+00   -4.47e+00   -9.73e+00
Req:     1.00e+12    1.00e+12    1.00e+12    1.00e+12    1.00e+12
CAP:     0.00e+00    0.00e+00    8.83e-12    1.04e-11    0.00e+00

Name:    d:q7:4      d:q7:3      d:q7:2      d:q7:1      d:q8:1
Model:   q7:md3      q7:md2      q7:md1       q7:md     q8:dn0124
Id:      9.42e+00    9.42e+00    2.61e-13   -8.70e-09   -1.22e-13
Vd:      2.61e-01    2.61e-01    2.61e-01   -9.73e-02   -1.07e-03
Req:     1.10e-03    1.10e-03    1.00e+12    5.03e+07    8.92e+09
CAP:     0.00e+00    0.00e+00    1.02e-10    2.16e-11    0.00e+00

Name:   d:dut:bd
Model:   dut:dbd
Id:     -5.31e-12
Vd:     -5.27e+00
Req:     1.00e+12
CAP:     5.78e-12

                        --- Bipolar Transistors ---
Name:     q:u2:2      q:u2:1      q:u12:2     q:u12:1          qq2
Model:     u2:qx       u2:qx      u12:qx      u12:qx    qbd135__bjt_npn__1
Ib:      -4.96e-08   -4.97e-08   -5.04e-08   -5.03e-08       4.45e-03
Ic:      -2.98e-06   -2.98e-06   -3.02e-06   -3.02e-06       4.33e-01
Vbe:     -5.70e-01   -5.70e-01   -5.70e-01   -5.70e-01       8.44e-01
Vbc:      9.84e+00    9.84e+00    5.60e+00    5.61e+00      -1.39e+00
Vce:     -1.04e+01   -1.04e+01   -6.18e+00   -6.18e+00       2.23e+00
BetaDC:   6.00e+01    6.00e+01    6.00e+01    6.00e+01       9.73e+01
Gm:       1.15e-04    1.15e-04    1.17e-04    1.17e-04       1.39e+01
Rpi:      5.21e+05    5.20e+05    5.13e+05    5.14e+05       5.75e+00
Rx:       0.00e+00    0.00e+00    0.00e+00    0.00e+00       5.00e-01
Ro:       0.00e+00    0.00e+00    0.00e+00    0.00e+00       5.11e+02
Cbe:      0.00e+00    0.00e+00    0.00e+00    0.00e+00       2.09e-08
Cbc:      0.00e+00    0.00e+00    0.00e+00    0.00e+00       1.78e-11
Cjs:      0.00e+00    0.00e+00    0.00e+00    0.00e+00       0.00e+00
BetaAC:   6.00e+01    6.00e+01    6.00e+01    6.00e+01       8.01e+01
Cbx:      0.00e+00    0.00e+00    0.00e+00    0.00e+00       0.00e+00
Ft:       0.00e+00    0.00e+00    0.00e+00    0.00e+00       1.06e+08

Name:          qq11                   qq12              q:u5:2      q:u5:1      q:u4:2
Model:  qbd135__bjt_npn__1 qbc51-10pa/nxp__bjt_pnp__1    u5:qx       u5:qx       u4:qx
Ib:          7.06e-07               7.41e-12           -5.03e-08   -5.02e-08   -5.03e-08
Ic:          9.02e-05              -6.86e-12           -3.02e-06   -3.01e-06   -3.02e-06
Vbe:         5.46e-01               5.46e-01           -5.70e-01   -5.70e-01   -5.70e-01
Vbc:        -1.02e+01               6.85e+00            6.25e+00    6.26e+00    6.25e+00
Vce:         1.07e+01              -6.30e+00           -6.83e+00   -6.83e+00   -6.83e+00
BetaDC:      1.28e+02              -9.26e-01            6.00e+01    6.00e+01    6.00e+01
Gm:          3.52e-03               1.50e-21            1.17e-04    1.17e-04    1.17e-04
Rpi:         3.64e+04               1.00e+12            5.14e+05    5.15e+05    5.14e+05
Rx:          5.00e-01               2.00e+00            0.00e+00    0.00e+00    0.00e+00
Ro:          2.56e+06               3.00e+24            0.00e+00    0.00e+00    0.00e+00
Cbe:         2.02e-10               9.38e-11            0.00e+00    0.00e+00    0.00e+00
Cbc:         8.39e-12               7.69e-12            0.00e+00    0.00e+00    0.00e+00
Cjs:         0.00e+00               0.00e+00            0.00e+00    0.00e+00    0.00e+00
BetaAC:      1.28e+02               1.50e-09            6.00e+01    6.00e+01    6.00e+01
Cbx:         0.00e+00               9.78e-12            0.00e+00    0.00e+00    0.00e+00
Ft:          2.66e+06               1.43e-03            0.00e+00    0.00e+00    0.00e+00

Name:     q:u4:1      q:u3:2      q:u3:1      q:u8:2      q:u8:1
Model:     u4:qx       u3:qx       u3:qx       u8:qx       u8:qx
Ib:      -5.02e-08   -5.03e-08   -5.02e-08   -4.96e-08   -4.96e-08
Ic:      -3.01e-06   -3.02e-06   -3.01e-06   -2.98e-06   -2.98e-06
Vbe:     -5.70e-01   -5.70e-01   -5.70e-01   -5.70e-01   -5.70e-01
Vbc:      6.26e+00    6.25e+00    6.25e+00    1.03e+01    1.03e+01
Vce:     -6.83e+00   -6.83e+00   -6.83e+00   -1.08e+01   -1.08e+01
BetaDC:   6.00e+01    6.00e+01    6.00e+01    6.00e+01    6.00e+01
Gm:       1.17e-04    1.17e-04    1.17e-04    1.15e-04    1.15e-04
Rpi:      5.15e+05    5.14e+05    5.15e+05    5.22e+05    5.21e+05
Rx:       0.00e+00    0.00e+00    0.00e+00    0.00e+00    0.00e+00
Ro:       0.00e+00    0.00e+00    0.00e+00    0.00e+00    0.00e+00
Cbe:      0.00e+00    0.00e+00    0.00e+00    0.00e+00    0.00e+00
Cbc:      0.00e+00    0.00e+00    0.00e+00    0.00e+00    0.00e+00
Cjs:      0.00e+00    0.00e+00    0.00e+00    0.00e+00    0.00e+00
BetaAC:   6.00e+01    6.00e+01    6.00e+01    6.00e+01    6.00e+01
Cbx:      0.00e+00    0.00e+00    0.00e+00    0.00e+00    0.00e+00
Ft:       0.00e+00    0.00e+00    0.00e+00    0.00e+00    0.00e+00

Name:     q:u7:2      q:u7:1      q:u6:2      q:u6:1      q:u1:2
Model:     u7:qx       u7:qx       u6:qx       u6:qx       u1:qx
Ib:      -4.96e-08   -4.96e-08   -4.96e-08   -4.96e-08   -4.88e-08
Ic:      -2.98e-06   -2.98e-06   -2.98e-06   -2.98e-06   -2.93e-06
Vbe:     -5.70e-01   -5.70e-01   -5.70e-01   -5.70e-01   -5.70e-01
Vbc:      1.03e+01    1.03e+01    1.03e+01    1.03e+01    1.46e+01
Vce:     -1.08e+01   -1.08e+01   -1.08e+01   -1.08e+01   -1.52e+01
BetaDC:   6.00e+01    6.00e+01    6.00e+01    6.00e+01    6.00e+01
Gm:       1.15e-04    1.15e-04    1.15e-04    1.15e-04    1.13e-04
Rpi:      5.22e+05    5.21e+05    5.22e+05    5.21e+05    5.30e+05
Rx:       0.00e+00    0.00e+00    0.00e+00    0.00e+00    0.00e+00
Ro:       0.00e+00    0.00e+00    0.00e+00    0.00e+00    0.00e+00
Cbe:      0.00e+00    0.00e+00    0.00e+00    0.00e+00    0.00e+00
Cbc:      0.00e+00    0.00e+00    0.00e+00    0.00e+00    0.00e+00
Cjs:      0.00e+00    0.00e+00    0.00e+00    0.00e+00    0.00e+00
BetaAC:   6.00e+01    6.00e+01    6.00e+01    6.00e+01    6.00e+01
Cbx:      0.00e+00    0.00e+00    0.00e+00    0.00e+00    0.00e+00
Ft:       0.00e+00    0.00e+00    0.00e+00    0.00e+00    0.00e+00

Name:     q:u1:1
Model:     u1:qx
Ib:      -4.89e-08
Ic:      -2.94e-06
Vbe:     -5.70e-01
Vbc:      1.46e+01
Vce:     -1.52e+01
BetaDC:   6.00e+01
Gm:       1.14e-04
Rpi:      5.28e+05
Rx:       0.00e+00
Ro:       0.00e+00
Cbe:      0.00e+00
Cbc:      0.00e+00
Cjs:      0.00e+00
BetaAC:   6.00e+01
Cbx:      0.00e+00
Ft:       0.00e+00

                        --- MOSFET Transistors ---
Name:        m:q5:1      m:q6:1      m:q3:1      m:q4:1      m:q7:1
Model:        q5:mm     q6:mn0124     q3:mm     q4:mn0124     q7:mm
Id:         -8.94e-12    1.95e-11   -8.94e-12    1.95e-11   -4.37e-01
Vgs:        -4.05e-02    0.00e+00   -4.05e-02    0.00e+00   -9.69e+00
Vds:        -4.47e+00    9.73e+00   -4.47e+00    9.73e+00   -1.19e-02
Vbs:         0.00e+00    0.00e+00    0.00e+00    0.00e+00    0.00e+00
Vth:        -8.68e-01    1.55e+00   -8.68e-01    1.55e+00   -8.68e-01
Vdsat:      -0.00e+00    0.00e+00   -0.00e+00    0.00e+00   -8.83e+00
Gm:          0.00e+00    0.00e+00    0.00e+00    0.00e+00    4.96e-02
Gds:         0.00e+00    0.00e+00    0.00e+00    0.00e+00    3.67e+01
Gmb:         0.00e+00    0.00e+00    0.00e+00    0.00e+00    0.00e+00
Cbd:         0.00e+00    1.10e-11    0.00e+00    1.10e-11    0.00e+00
Cbs:         0.00e+00    0.00e+00    0.00e+00    0.00e+00    0.00e+00
Cgsov:       1.38e-10    6.00e-15    1.38e-10    6.00e-15    1.38e-10
Cgdov:       1.16e-11    2.00e-16    1.16e-11    2.00e-16    1.16e-11
Cgbov:       0.00e+00    0.00e+00    0.00e+00    0.00e+00    0.00e+00
Cgs:         0.00e+00    0.00e+00    0.00e+00    0.00e+00    0.00e+00
Cgd:         0.00e+00    0.00e+00    0.00e+00    0.00e+00    0.00e+00
Cgb:         0.00e+00    0.00e+00    0.00e+00    0.00e+00    0.00e+00

Name:        m:q8:1      m:q9:1      m:q1:1         mu9            mu14
Model:      q8:mn0124    q9:mint     q1:mint   tn2501__def__1 tn2501__def__1
Id:          9.77e-05    2.38e-07    2.58e-05     2.61e-05       1.63e-11
Vgs:         5.00e+00   -1.30e+00   -1.30e+00     5.00e+00       0.00e+00
Vds:         1.07e-03    4.20e-06    4.57e-04     3.80e-05       1.30e+00
Vbs:         0.00e+00    0.00e+00    0.00e+00     0.00e+00       0.00e+00
Vth:         1.55e+00   -1.34e+00   -1.34e+00     6.50e-01       6.44e-01
Vdsat:       3.45e+00   -1.38e-01   -1.38e-01     3.99e+00       3.32e-02
Gm:          2.83e-05    1.56e-06    1.70e-04     5.94e-06       3.77e-10
Gds:         3.71e+00    5.65e-02    5.65e-02     5.32e+00       1.81e-12
Gmb:         0.00e+00    0.00e+00    0.00e+00     7.37e-07       8.23e-11
Cbd:         3.60e-11    0.00e+00    0.00e+00     0.00e+00       0.00e+00
Cbs:         0.00e+00    0.00e+00    0.00e+00     0.00e+00       0.00e+00
Cgsov:       6.00e-15    0.00e+00    0.00e+00     1.48e-10       1.48e-10
Cgdov:       2.00e-16    0.00e+00    0.00e+00     1.87e-11       1.87e-11
Cgbov:       0.00e+00    0.00e+00    0.00e+00     0.00e+00       0.00e+00
Cgs:         0.00e+00    1.73e-12    1.72e-12     2.81e-11       0.00e+00
Cgd:         0.00e+00    1.73e-12    1.73e-12     2.81e-11       0.00e+00
Cgb:         0.00e+00    0.00e+00    0.00e+00     0.00e+00       5.61e-11

Name:        m:q13:1     m:q10:1     m:dut:1
Model:      q13:mint    q10:mint    dut:mint
Id:         -2.37e-09    2.38e-09   -4.37e-01
Vgs:        -8.24e-07   -8.25e-07   -3.97e+00
Vds:        -2.20e-04    2.20e-04   -4.29e+00
Vbs:         0.00e+00    0.00e+00    0.00e+00
Vth:        -1.34e+00   -1.34e+00   -1.34e+00
Vdsat:      -1.38e-01   -1.38e-01   -7.12e-01
Gm:          1.56e-08    1.57e-08    1.79e-01
Gds:         1.08e-05    1.08e-05    2.41e-01
Gmb:         0.00e+00    0.00e+00   -0.00e+00
Cbd:         0.00e+00    0.00e+00    0.00e+00
Cbs:         0.00e+00    0.00e+00    0.00e+00
Cgsov:       0.00e+00    0.00e+00    0.00e+00
Cgdov:       0.00e+00    0.00e+00    0.00e+00
Cgbov:       0.00e+00    0.00e+00    0.00e+00
Cgs:         1.73e-12    1.73e-12    2.30e-12
Cgd:         1.73e-12    1.73e-12    0.00e+00
Cgb:         0.00e+00    0.00e+00    0.00e+00



Date: Wed Mar 15 00:22:19 2023
Total elapsed time: 0.174 seconds.

tnom = 27
temp = 27
method = trap
totiter = 205
traniter = 0
tranpoints = 0
accept = 0
rejected = 0
matrix size = 565
fillins = 1346
solver = Normal

